User : 14 4 command.c:549 command_print(): debug_level: 3
Debug: 15 4 configuration.c:45 add_script_search_dir(): adding /home/janis/.openocd
Debug: 16 4 configuration.c:45 add_script_search_dir(): adding /usr/local/share/openocd/site
Debug: 17 4 configuration.c:45 add_script_search_dir(): adding /usr/local/share/openocd/scripts
Debug: 18 4 command.c:145 script_debug(): command - ocd_command ocd_command type ocd_gdb_port 3333
Debug: 19 4 command.c:145 script_debug(): command - gdb_port ocd_gdb_port 3333
Debug: 21 4 command.c:145 script_debug(): command - ocd_command ocd_command type ocd_telnet_port 4444
Debug: 22 4 command.c:145 script_debug(): command - telnet_port ocd_telnet_port 4444
Debug: 24 4 configuration.c:86 find_file(): found /usr/local/share/openocd/scripts/board/stm32vldiscovery.cfg
Debug: 25 5 configuration.c:86 find_file(): found /usr/local/share/openocd/scripts/interface/stlink-v1.cfg
Debug: 26 5 command.c:145 script_debug(): command - ocd_command ocd_command type ocd_interface hla
Debug: 27 5 command.c:145 script_debug(): command - interface ocd_interface hla
Debug: 29 5 command.c:369 register_command_handler(): registering 'ocd_hla_device_desc'...
Debug: 30 5 command.c:369 register_command_handler(): registering 'ocd_hla_serial'...
Debug: 31 5 command.c:369 register_command_handler(): registering 'ocd_hla_layout'...
Debug: 32 5 command.c:369 register_command_handler(): registering 'ocd_hla_vid_pid'...
Debug: 33 5 command.c:369 register_command_handler(): registering 'ocd_stlink_api'...
Debug: 34 5 command.c:145 script_debug(): command - ocd_command ocd_command type ocd_hla_layout stlink
Debug: 35 5 command.c:145 script_debug(): command - hla_layout ocd_hla_layout stlink
Debug: 37 5 hla_interface.c:167 hl_interface_handle_layout_command(): hl_interface_handle_layout_command
Debug: 38 5 command.c:145 script_debug(): command - ocd_command ocd_command type ocd_hla_device_desc ST-LINK/V1
Debug: 39 5 command.c:145 script_debug(): command - hla_device_desc ocd_hla_device_desc ST-LINK/V1
Debug: 41 5 hla_interface.c:141 hl_interface_handle_device_desc_command(): hl_interface_handle_device_desc_command
Debug: 42 5 command.c:145 script_debug(): command - ocd_command ocd_command type ocd_hla_vid_pid 0x0483 0x3744
Debug: 43 5 command.c:145 script_debug(): command - hla_vid_pid ocd_hla_vid_pid 0x0483 0x3744
Debug: 45 5 hla_interface.c:195 hl_interface_handle_vid_pid_command(): hl_interface_handle_vid_pid_command
Debug: 46 5 configuration.c:86 find_file(): found /usr/local/share/openocd/scripts/target/stm32f1x_stlink.cfg
Debug: 47 5 configuration.c:86 find_file(): found /usr/local/share/openocd/scripts/target/stm32_stlink.cfg
Debug: 48 5 command.c:145 script_debug(): command - ocd_command ocd_command type ocd_transport select hla_swd
Debug: 49 5 command.c:145 script_debug(): command - ocd_transport ocd_transport select hla_swd
Debug: 50 5 hla_transport.c:187 hl_transport_select(): hl_transport_select
Debug: 51 5 command.c:369 register_command_handler(): registering 'ocd_hla'...
Debug: 52 5 command.c:369 register_command_handler(): registering 'ocd_jtag'...
Debug: 53 5 command.c:369 register_command_handler(): registering 'ocd_jtag'...
Debug: 54 5 command.c:369 register_command_handler(): registering 'ocd_jtag'...
Debug: 55 5 command.c:369 register_command_handler(): registering 'ocd_jtag'...
Debug: 56 5 command.c:369 register_command_handler(): registering 'ocd_jtag'...
Debug: 57 5 command.c:369 register_command_handler(): registering 'ocd_jtag'...
Debug: 58 5 command.c:369 register_command_handler(): registering 'ocd_jtag'...
Debug: 59 5 command.c:369 register_command_handler(): registering 'ocd_jtag'...
Debug: 60 5 command.c:369 register_command_handler(): registering 'ocd_jtag'...
Debug: 61 6 command.c:145 script_debug(): command - ocd_command ocd_command type ocd_hla newtap stm32f1x cpu -expected-id 0x1ba01477
Debug: 62 6 command.c:145 script_debug(): command - ocd_hla ocd_hla newtap stm32f1x cpu -expected-id 0x1ba01477
Debug: 63 6 hla_tcl.c:104 jim_hl_newtap_cmd(): Creating New Tap, Chip: stm32f1x, Tap: cpu, Dotted: stm32f1x.cpu, 2 params
Debug: 64 6 hla_tcl.c:114 jim_hl_newtap_cmd(): Processing option: -expected-id
Debug: 65 6 core.c:1323 jtag_tap_init(): Created Tap: stm32f1x.cpu @ abs position 0, irlen 0, capture: 0x0 mask: 0x0
Debug: 66 6 command.c:145 script_debug(): command - ocd_command ocd_command type ocd_target create stm32f1x.cpu hla_target -chain-position stm32f1x.cpu
Debug: 67 6 command.c:145 script_debug(): command - ocd_target ocd_target create stm32f1x.cpu hla_target -chain-position stm32f1x.cpu
Debug: 68 6 target.c:1615 target_free_all_working_areas_restore(): freeing all working areas
Debug: 69 6 command.c:369 register_command_handler(): registering 'ocd_arm'...
Debug: 70 6 command.c:369 register_command_handler(): registering 'ocd_arm'...
Debug: 71 6 command.c:369 register_command_handler(): registering 'ocd_arm'...
Debug: 72 6 command.c:369 register_command_handler(): registering 'ocd_arm'...
Debug: 73 6 command.c:369 register_command_handler(): registering 'ocd_arm'...
Debug: 74 6 command.c:369 register_command_handler(): registering 'ocd_arm'...
Debug: 75 6 hla_target.c:299 adapter_target_create(): adapter_target_create
Debug: 76 6 hla_target.c:272 adapter_init_arch_info(): adapter_init_arch_info
Debug: 77 6 command.c:369 register_command_handler(): registering 'ocd_stm32f1x.cpu'...
Debug: 78 6 command.c:369 register_command_handler(): registering 'ocd_stm32f1x.cpu'...
Debug: 79 6 command.c:369 register_command_handler(): registering 'ocd_stm32f1x.cpu'...
Debug: 80 6 command.c:369 register_command_handler(): registering 'ocd_stm32f1x.cpu'...
Debug: 81 6 command.c:369 register_command_handler(): registering 'ocd_stm32f1x.cpu'...
Debug: 82 6 command.c:369 register_command_handler(): registering 'ocd_stm32f1x.cpu'...
Debug: 83 6 command.c:369 register_command_handler(): registering 'ocd_stm32f1x.cpu'...
Debug: 84 6 command.c:369 register_command_handler(): registering 'ocd_stm32f1x.cpu'...
Debug: 85 6 command.c:369 register_command_handler(): registering 'ocd_stm32f1x.cpu'...
Debug: 86 6 command.c:369 register_command_handler(): registering 'ocd_stm32f1x.cpu'...
Debug: 87 6 command.c:369 register_command_handler(): registering 'ocd_stm32f1x.cpu'...
Debug: 88 6 command.c:369 register_command_handler(): registering 'ocd_stm32f1x.cpu'...
Debug: 89 6 command.c:369 register_command_handler(): registering 'ocd_stm32f1x.cpu'...
Debug: 90 6 command.c:369 register_command_handler(): registering 'ocd_stm32f1x.cpu'...
Debug: 91 6 command.c:369 register_command_handler(): registering 'ocd_stm32f1x.cpu'...
Debug: 92 6 command.c:369 register_command_handler(): registering 'ocd_stm32f1x.cpu'...
Debug: 93 6 command.c:369 register_command_handler(): registering 'ocd_stm32f1x.cpu'...
Debug: 94 6 command.c:369 register_command_handler(): registering 'ocd_stm32f1x.cpu'...
Debug: 95 6 command.c:369 register_command_handler(): registering 'ocd_stm32f1x.cpu'...
Debug: 96 6 command.c:369 register_command_handler(): registering 'ocd_stm32f1x.cpu'...
Debug: 97 6 command.c:369 register_command_handler(): registering 'ocd_stm32f1x.cpu'...
Debug: 98 6 command.c:369 register_command_handler(): registering 'ocd_stm32f1x.cpu'...
Debug: 99 6 command.c:369 register_command_handler(): registering 'ocd_stm32f1x.cpu'...
Debug: 100 6 command.c:369 register_command_handler(): registering 'ocd_stm32f1x.cpu'...
Debug: 101 6 command.c:369 register_command_handler(): registering 'ocd_stm32f1x.cpu'...
Debug: 102 6 command.c:369 register_command_handler(): registering 'ocd_stm32f1x.cpu'...
Debug: 103 6 command.c:145 script_debug(): command - ocd_command ocd_command type ocd_stm32f1x.cpu configure -work-area-phys 0x20000000 -work-area-size 0x2000 -work-area-backup 0
Debug: 104 6 command.c:145 script_debug(): command - ocd_stm32f1x.cpu ocd_stm32f1x.cpu configure -work-area-phys 0x20000000 -work-area-size 0x2000 -work-area-backup 0
Debug: 105 6 target.c:1615 target_free_all_working_areas_restore(): freeing all working areas
Debug: 106 6 target.c:1615 target_free_all_working_areas_restore(): freeing all working areas
Debug: 107 6 target.c:1615 target_free_all_working_areas_restore(): freeing all working areas
Debug: 108 6 command.c:145 script_debug(): command - ocd_command ocd_command type ocd_flash bank stm32f1x.flash stm32f1x 0 0 0 0 stm32f1x.cpu
Debug: 109 6 command.c:145 script_debug(): command - ocd_flash ocd_flash bank stm32f1x.flash stm32f1x 0 0 0 0 stm32f1x.cpu
Debug: 111 6 command.c:369 register_command_handler(): registering 'ocd_stm32f1x'...
Debug: 112 6 command.c:369 register_command_handler(): registering 'ocd_stm32f1x'...
Debug: 113 6 command.c:369 register_command_handler(): registering 'ocd_stm32f1x'...
Debug: 114 7 command.c:369 register_command_handler(): registering 'ocd_stm32f1x'...
Debug: 115 7 command.c:369 register_command_handler(): registering 'ocd_stm32f1x'...
Debug: 116 7 tcl.c:781 handle_flash_bank_command(): 'stm32f1x' driver usage field missing
Debug: 117 7 command.c:145 script_debug(): command - ocd_command ocd_command type ocd_init
Debug: 118 7 command.c:145 script_debug(): command - init ocd_init
Debug: 120 7 command.c:145 script_debug(): command - ocd_command ocd_command type ocd_target init
Debug: 121 7 command.c:145 script_debug(): command - ocd_target ocd_target init
Debug: 123 7 target.c:1178 handle_target_init_command(): Initializing targets...
Debug: 124 7 hla_target.c:289 adapter_init_target(): adapter_init_target
Debug: 125 7 command.c:369 register_command_handler(): registering 'ocd_target_request'...
Debug: 126 7 command.c:369 register_command_handler(): registering 'ocd_trace'...
Debug: 127 7 command.c:369 register_command_handler(): registering 'ocd_trace'...
Debug: 128 7 command.c:369 register_command_handler(): registering 'ocd_fast_load_image'...
Debug: 129 7 command.c:369 register_command_handler(): registering 'ocd_fast_load'...
Debug: 130 7 command.c:369 register_command_handler(): registering 'ocd_profile'...
Debug: 131 7 command.c:369 register_command_handler(): registering 'ocd_virt2phys'...
Debug: 132 7 command.c:369 register_command_handler(): registering 'ocd_reg'...
Debug: 133 7 command.c:369 register_command_handler(): registering 'ocd_poll'...
Debug: 134 7 command.c:369 register_command_handler(): registering 'ocd_wait_halt'...
Debug: 135 7 command.c:369 register_command_handler(): registering 'ocd_halt'...
Debug: 136 7 command.c:369 register_command_handler(): registering 'ocd_resume'...
Debug: 137 7 command.c:369 register_command_handler(): registering 'ocd_reset'...
Debug: 138 7 command.c:369 register_command_handler(): registering 'ocd_soft_reset_halt'...
Debug: 139 7 command.c:369 register_command_handler(): registering 'ocd_step'...
Debug: 140 7 command.c:369 register_command_handler(): registering 'ocd_mdw'...
Debug: 141 7 command.c:369 register_command_handler(): registering 'ocd_mdh'...
Debug: 142 7 command.c:369 register_command_handler(): registering 'ocd_mdb'...
Debug: 143 7 command.c:369 register_command_handler(): registering 'ocd_mww'...
Debug: 144 7 command.c:369 register_command_handler(): registering 'ocd_mwh'...
Debug: 145 7 command.c:369 register_command_handler(): registering 'ocd_mwb'...
Debug: 146 7 command.c:369 register_command_handler(): registering 'ocd_bp'...
Debug: 147 7 command.c:369 register_command_handler(): registering 'ocd_rbp'...
Debug: 148 7 command.c:369 register_command_handler(): registering 'ocd_wp'...
Debug: 149 7 command.c:369 register_command_handler(): registering 'ocd_rwp'...
Debug: 150 7 command.c:369 register_command_handler(): registering 'ocd_load_image'...
Debug: 151 7 command.c:369 register_command_handler(): registering 'ocd_dump_image'...
Debug: 152 7 command.c:369 register_command_handler(): registering 'ocd_verify_image'...
Debug: 153 7 command.c:369 register_command_handler(): registering 'ocd_test_image'...
Debug: 154 7 command.c:369 register_command_handler(): registering 'ocd_reset_nag'...
Debug: 155 7 command.c:369 register_command_handler(): registering 'ocd_ps'...
Debug: 156 7 hla_interface.c:107 hl_interface_init(): hl_interface_init
Debug: 157 7 hla_layout.c:91 hl_layout_init(): hl_layout_init
Info : 158 7 core.c:1375 adapter_init(): This adapter doesn't support configurable speed
Debug: 159 7 openocd.c:132 handle_init_command(): Debug Adapter init complete
Debug: 160 7 command.c:145 script_debug(): command - ocd_command ocd_command type ocd_transport init
Debug: 161 7 command.c:145 script_debug(): command - ocd_transport ocd_transport init
Debug: 163 7 transport.c:240 handle_transport_init(): handle_transport_init
Debug: 164 7 hla_transport.c:148 hl_transport_init(): hl_transport_init
Debug: 165 7 hla_transport.c:165 hl_transport_init(): current transport hla_swd
Debug: 166 7 hla_interface.c:44 hl_interface_open(): hl_interface_open
Debug: 167 7 hla_layout.c:42 hl_layout_open(): hl_layout_open
Debug: 168 7 stlink_usb.c:1233 stlink_usb_open(): stlink_usb_open
Debug: 169 8 stlink_usb.c:1251 stlink_usb_open(): transport: 1 vid: 0x0483 pid: 0x3744
Info : 170 10 stlink_usb.c:423 stlink_usb_version(): STLINK v1 JTAG v12 API v2 SWIM v0 VID 0x0483 PID 0x3744
Debug: 171 20 stlink_usb.c:601 stlink_usb_init_mode(): MODE: 0x02
Debug: 172 21 stlink_usb.c:656 stlink_usb_init_mode(): MODE: 0x01
Debug: 173 22 stlink_usb.c:695 stlink_usb_init_mode(): MODE: 0x02
Debug: 174 22 hla_interface.c:69 hl_interface_init_target(): hl_interface_init_target
Debug: 175 23 stlink_usb.c:722 stlink_usb_idcode(): IDCODE: 0x1BA01477
Debug: 176 23 openocd.c:145 handle_init_command(): Examining targets...
Debug: 177 23 target.c:1294 target_call_event_callbacks(): target event 21 (examine-start)
Debug: 178 23 hla_target.c:697 adapter_read_memory(): adapter_read_memory 0xe000ed00 4 1
Debug: 179 24 target.c:1912 target_read_u32(): address: 0xe000ed00, value: 0x411fc231
Debug: 180 24 cortex_m.c:1852 cortex_m3_examine(): Cortex-M3 r1p1 processor detected
Debug: 181 24 cortex_m.c:1853 cortex_m3_examine(): cpuid: 0x411fc231
Debug: 182 24 hla_target.c:697 adapter_read_memory(): adapter_read_memory 0xe0002000 4 1
Debug: 183 25 target.c:1912 target_read_u32(): address: 0xe0002000, value: 0x00000261
Debug: 184 25 target.c:1978 target_write_u32(): address: 0xe0002008, value: 0x00000000
Debug: 185 25 hla_target.c:745 adapter_write_memory(): adapter_write_memory 0xe0002008 4 1
Debug: 186 26 target.c:1978 target_write_u32(): address: 0xe000200c, value: 0x00000000
Debug: 187 26 hla_target.c:745 adapter_write_memory(): adapter_write_memory 0xe000200c 4 1
Debug: 188 27 target.c:1978 target_write_u32(): address: 0xe0002010, value: 0x00000000
Debug: 189 27 hla_target.c:745 adapter_write_memory(): adapter_write_memory 0xe0002010 4 1
Debug: 190 28 target.c:1978 target_write_u32(): address: 0xe0002014, value: 0x00000000
Debug: 191 28 hla_target.c:745 adapter_write_memory(): adapter_write_memory 0xe0002014 4 1
Debug: 192 29 target.c:1978 target_write_u32(): address: 0xe0002018, value: 0x00000000
Debug: 193 29 hla_target.c:745 adapter_write_memory(): adapter_write_memory 0xe0002018 4 1
Debug: 194 30 target.c:1978 target_write_u32(): address: 0xe000201c, value: 0x00000000
Debug: 195 30 hla_target.c:745 adapter_write_memory(): adapter_write_memory 0xe000201c 4 1
Debug: 196 31 target.c:1978 target_write_u32(): address: 0xe0002020, value: 0x00000000
Debug: 197 31 hla_target.c:745 adapter_write_memory(): adapter_write_memory 0xe0002020 4 1
Debug: 198 32 target.c:1978 target_write_u32(): address: 0xe0002024, value: 0x00000000
Debug: 199 32 hla_target.c:745 adapter_write_memory(): adapter_write_memory 0xe0002024 4 1
Debug: 200 33 cortex_m.c:1900 cortex_m3_examine(): FPB fpcr 0x261, numcode 6, numlit 2
Debug: 201 34 hla_target.c:697 adapter_read_memory(): adapter_read_memory 0xe0001000 4 1
Debug: 202 34 target.c:1912 target_read_u32(): address: 0xe0001000, value: 0x40000000
Debug: 203 34 target.c:1978 target_write_u32(): address: 0xe0001028, value: 0x00000000
Debug: 204 34 hla_target.c:745 adapter_write_memory(): adapter_write_memory 0xe0001028 4 1
Debug: 205 35 target.c:1978 target_write_u32(): address: 0xe0001038, value: 0x00000000
Debug: 206 35 hla_target.c:745 adapter_write_memory(): adapter_write_memory 0xe0001038 4 1
Debug: 207 36 target.c:1978 target_write_u32(): address: 0xe0001048, value: 0x00000000
Debug: 208 36 hla_target.c:745 adapter_write_memory(): adapter_write_memory 0xe0001048 4 1
Debug: 209 37 target.c:1978 target_write_u32(): address: 0xe0001058, value: 0x00000000
Debug: 210 37 hla_target.c:745 adapter_write_memory(): adapter_write_memory 0xe0001058 4 1
Debug: 211 38 cortex_m.c:1809 cortex_m3_dwt_setup(): DWT dwtcr 0x40000000, comp 4, watch/trigger
Info : 212 38 cortex_m.c:1909 cortex_m3_examine(): stm32f1x.cpu: hardware has 6 breakpoints, 4 watchpoints
Debug: 213 38 target.c:1294 target_call_event_callbacks(): target event 22 (examine-end)
Debug: 214 38 command.c:145 script_debug(): command - ocd_command ocd_command type ocd_flash init
Debug: 215 38 command.c:145 script_debug(): command - ocd_flash ocd_flash init
Debug: 217 38 tcl.c:847 handle_flash_init_command(): Initializing flash devices...
Debug: 218 38 command.c:369 register_command_handler(): registering 'ocd_flash'...
Debug: 219 38 command.c:369 register_command_handler(): registering 'ocd_flash'...
Debug: 220 38 command.c:369 register_command_handler(): registering 'ocd_flash'...
Debug: 221 38 command.c:369 register_command_handler(): registering 'ocd_flash'...
Debug: 222 38 command.c:369 register_command_handler(): registering 'ocd_flash'...
Debug: 223 39 command.c:369 register_command_handler(): registering 'ocd_flash'...
Debug: 224 39 command.c:369 register_command_handler(): registering 'ocd_flash'...
Debug: 225 39 command.c:369 register_command_handler(): registering 'ocd_flash'...
Debug: 226 39 command.c:369 register_command_handler(): registering 'ocd_flash'...
Debug: 227 39 command.c:369 register_command_handler(): registering 'ocd_flash'...
Debug: 228 39 command.c:369 register_command_handler(): registering 'ocd_flash'...
Debug: 229 39 command.c:145 script_debug(): command - ocd_command ocd_command type ocd_mflash init
Debug: 230 39 command.c:145 script_debug(): command - ocd_mflash ocd_mflash init
Debug: 232 39 mflash.c:1379 handle_mflash_init_command(): Initializing mflash devices...
Debug: 233 39 command.c:145 script_debug(): command - ocd_command ocd_command type ocd_nand init
Debug: 234 39 command.c:145 script_debug(): command - ocd_nand ocd_nand init
Debug: 236 39 tcl.c:497 handle_nand_init_command(): Initializing NAND devices...
Debug: 237 39 command.c:145 script_debug(): command - ocd_command ocd_command type ocd_pld init
Debug: 238 39 command.c:145 script_debug(): command - ocd_pld ocd_pld init
Debug: 240 39 pld.c:207 handle_pld_init_command(): Initializing PLDs...
Info : 241 256 server.c:83 add_connection(): accepting 'gdb' connection from 3333
Debug: 242 256 breakpoints.c:359 breakpoint_clear_target_internal(): Delete all breakpoints for target: stm32f1x.cpu
Debug: 243 256 breakpoints.c:499 watchpoint_clear_target(): Delete all watchpoints for target: stm32f1x.cpu
Debug: 244 256 target.c:1294 target_call_event_callbacks(): target event 23 (gdb-attach)
Debug: 245 256 hla_target.c:697 adapter_read_memory(): adapter_read_memory 0xe000ed00 4 1
Debug: 246 258 target.c:1912 target_read_u32(): address: 0xe000ed00, value: 0x411fc231
Debug: 247 258 hla_target.c:697 adapter_read_memory(): adapter_read_memory 0xe0042000 4 1
Debug: 248 259 target.c:1912 target_read_u32(): address: 0xe0042000, value: 0x10016420
Info : 249 259 stm32f1x.c:873 stm32x_probe(): device id = 0x10016420
Debug: 250 259 hla_target.c:697 adapter_read_memory(): adapter_read_memory 0xe000ed00 4 1
Debug: 251 260 target.c:1912 target_read_u32(): address: 0xe000ed00, value: 0x411fc231
Debug: 252 260 hla_target.c:697 adapter_read_memory(): adapter_read_memory 0x1ffff7e0 2 1
Debug: 253 261 target.c:1936 target_read_u16(): address: 0x1ffff7e0, value: 0x0080
Info : 254 261 stm32f1x.c:973 stm32x_probe(): flash size = 128kbytes
Debug: 255 261 gdb_server.c:815 gdb_new_connection(): New GDB Connection: 1, Target stm32f1x.cpu, state: unknown
Debug: 256 261 gdb_server.c:2019 gdb_input_inner(): received packet: 'qSupported:multiprocess+;qRelocInsn+'
Debug: 257 261 gdb_server.c:2019 gdb_input_inner(): received packet: 'QStartNoAckMode'
Warn : 258 261 gdb_server.c:603 gdb_get_packet_inner(): acknowledgment received, but no packet pending
Debug: 259 261 gdb_server.c:2019 gdb_input_inner(): received packet: 'Hg0'
Debug: 260 261 gdb_server.c:2019 gdb_input_inner(): received packet: '?'
User : 261 261 gdb_server.c:132 gdb_last_signal(): undefined debug reason 6 - target needs reset
Debug: 262 261 gdb_server.c:2019 gdb_input_inner(): received packet: 'Hc-1'
Debug: 263 261 gdb_server.c:2019 gdb_input_inner(): received packet: 'qC'
Debug: 264 262 gdb_server.c:2019 gdb_input_inner(): received packet: 'qAttached'
Debug: 265 268 gdb_server.c:2019 gdb_input_inner(): received packet: 'g'
Debug: 266 268 gdb_server.c:2019 gdb_input_inner(): received packet: 'qXfer:memory-map:read::0,fff'
Debug: 267 268 gdb_server.c:2019 gdb_input_inner(): received packet: 'm0,4'
Debug: 268 269 gdb_server.c:1192 gdb_read_memory_packet(): addr: 0x00000000, len: 0x00000004
Debug: 269 269 target.c:1764 target_read_buffer(): reading buffer of 4 byte at 0x00000000
Debug: 270 269 hla_target.c:697 adapter_read_memory(): adapter_read_memory 0x00000000 4 1
Debug: 271 271 gdb_server.c:2019 gdb_input_inner(): received packet: 'qTStatus'
Debug: 272 297 gdb_server.c:2019 gdb_input_inner(): received packet: 'qRcmd,726573657420696e6974'
Debug: 273 297 command.c:145 script_debug(): command - ocd_command ocd_command type ocd_reset init
Debug: 274 297 command.c:145 script_debug(): command - reset ocd_reset init
Debug: 276 297 command.c:145 script_debug(): command - ocd_command ocd_command type ocd_target names
Debug: 277 297 command.c:145 script_debug(): command - ocd_target ocd_target names
Debug: 278 297 command.c:145 script_debug(): command - ocd_command ocd_command type ocd_stm32f1x.cpu invoke-event reset-start
Debug: 279 297 command.c:145 script_debug(): command - ocd_stm32f1x.cpu ocd_stm32f1x.cpu invoke-event reset-start
Debug: 280 297 command.c:145 script_debug(): command - ocd_command ocd_command type ocd_jtag arp_init-reset
Debug: 281 297 command.c:145 script_debug(): command - ocd_jtag ocd_jtag arp_init-reset
Debug: 283 298 command.c:145 script_debug(): command - ocd_command ocd_command type ocd_stm32f1x.cpu cget -chain-position
Debug: 284 298 command.c:145 script_debug(): command - ocd_stm32f1x.cpu ocd_stm32f1x.cpu cget -chain-position
Debug: 285 298 command.c:145 script_debug(): command - ocd_command ocd_command type ocd_jtag tapisenabled stm32f1x.cpu
Debug: 286 298 command.c:145 script_debug(): command - ocd_jtag ocd_jtag tapisenabled stm32f1x.cpu
Debug: 287 298 command.c:145 script_debug(): command - ocd_command ocd_command type ocd_stm32f1x.cpu invoke-event examine-start
Debug: 288 298 command.c:145 script_debug(): command - ocd_stm32f1x.cpu ocd_stm32f1x.cpu invoke-event examine-start
Debug: 289 298 command.c:145 script_debug(): command - ocd_command ocd_command type ocd_stm32f1x.cpu arp_examine
Debug: 290 298 command.c:145 script_debug(): command - ocd_stm32f1x.cpu ocd_stm32f1x.cpu arp_examine
Debug: 291 298 command.c:145 script_debug(): command - ocd_command ocd_command type ocd_stm32f1x.cpu invoke-event examine-end
Debug: 292 298 command.c:145 script_debug(): command - ocd_stm32f1x.cpu ocd_stm32f1x.cpu invoke-event examine-end
Debug: 293 298 command.c:145 script_debug(): command - ocd_command ocd_command type ocd_stm32f1x.cpu invoke-event reset-assert-pre
Debug: 294 298 command.c:145 script_debug(): command - ocd_stm32f1x.cpu ocd_stm32f1x.cpu invoke-event reset-assert-pre
Debug: 295 298 command.c:145 script_debug(): command - ocd_command ocd_command type ocd_stm32f1x.cpu cget -chain-position
Debug: 296 298 command.c:145 script_debug(): command - ocd_stm32f1x.cpu ocd_stm32f1x.cpu cget -chain-position
Debug: 297 298 command.c:145 script_debug(): command - ocd_command ocd_command type ocd_jtag tapisenabled stm32f1x.cpu
Debug: 298 298 command.c:145 script_debug(): command - ocd_jtag ocd_jtag tapisenabled stm32f1x.cpu
Debug: 299 298 command.c:145 script_debug(): command - ocd_command ocd_command type ocd_stm32f1x.cpu arp_reset assert 1
Debug: 300 298 command.c:145 script_debug(): command - ocd_stm32f1x.cpu ocd_stm32f1x.cpu arp_reset assert 1
Debug: 301 298 target.c:1615 target_free_all_working_areas_restore(): freeing all working areas
Debug: 302 298 hla_target.c:425 adapter_assert_reset(): adapter_assert_reset
Debug: 303 300 stlink_usb.c:854 stlink_usb_reset(): RESET: 0x00000080
Debug: 304 300 command.c:145 script_debug(): command - ocd_command ocd_command type ocd_stm32f1x.cpu invoke-event reset-assert-post
Debug: 305 300 command.c:145 script_debug(): command - ocd_stm32f1x.cpu ocd_stm32f1x.cpu invoke-event reset-assert-post
Debug: 306 300 command.c:145 script_debug(): command - ocd_command ocd_command type ocd_stm32f1x.cpu invoke-event reset-deassert-pre
Debug: 307 300 command.c:145 script_debug(): command - ocd_stm32f1x.cpu ocd_stm32f1x.cpu invoke-event reset-deassert-pre
Debug: 308 300 command.c:145 script_debug(): command - ocd_command ocd_command type ocd_stm32f1x.cpu cget -chain-position
Debug: 309 300 command.c:145 script_debug(): command - ocd_stm32f1x.cpu ocd_stm32f1x.cpu cget -chain-position
Debug: 310 300 command.c:145 script_debug(): command - ocd_command ocd_command type ocd_jtag tapisenabled stm32f1x.cpu
Debug: 311 300 command.c:145 script_debug(): command - ocd_jtag ocd_jtag tapisenabled stm32f1x.cpu
Debug: 312 300 command.c:145 script_debug(): command - ocd_command ocd_command type ocd_stm32f1x.cpu arp_reset deassert 1
Debug: 313 300 command.c:145 script_debug(): command - ocd_stm32f1x.cpu ocd_stm32f1x.cpu arp_reset deassert 1
Debug: 314 301 target.c:1615 target_free_all_working_areas_restore(): freeing all working areas
Debug: 315 301 hla_target.c:488 adapter_deassert_reset(): adapter_deassert_reset
Debug: 316 301 hla_interface.c:122 hl_interface_execute_queue(): hl_interface_execute_queue: ignored
Debug: 317 301 core.c:719 jtag_add_reset(): SRST line released
Debug: 318 301 core.c:743 jtag_add_reset(): TRST line released
Debug: 319 301 core.c:323 jtag_call_event_callbacks(): jtag event: TAP reset
Debug: 320 301 command.c:145 script_debug(): command - ocd_command ocd_command type ocd_stm32f1x.cpu invoke-event reset-deassert-post
Debug: 321 301 command.c:145 script_debug(): command - ocd_stm32f1x.cpu ocd_stm32f1x.cpu invoke-event reset-deassert-post
Debug: 322 301 command.c:145 script_debug(): command - ocd_command ocd_command type ocd_stm32f1x.cpu cget -chain-position
Debug: 323 301 command.c:145 script_debug(): command - ocd_stm32f1x.cpu ocd_stm32f1x.cpu cget -chain-position
Debug: 324 301 command.c:145 script_debug(): command - ocd_command ocd_command type ocd_jtag tapisenabled stm32f1x.cpu
Debug: 325 301 command.c:145 script_debug(): command - ocd_jtag ocd_jtag tapisenabled stm32f1x.cpu
Debug: 326 301 command.c:145 script_debug(): command - ocd_command ocd_command type ocd_stm32f1x.cpu arp_waitstate halted 1000
Debug: 327 301 command.c:145 script_debug(): command - ocd_stm32f1x.cpu ocd_stm32f1x.cpu arp_waitstate halted 1000
Debug: 328 302 target.c:2442 target_wait_state(): waiting for target halted...
Debug: 329 302 hla_target.c:55 adapter_load_core_reg_u32(): adapter_load_core_reg_u32
Debug: 330 303 hla_target.c:70 adapter_load_core_reg_u32(): load from core reg 0  value 0x29a
Debug: 331 303 hla_target.c:55 adapter_load_core_reg_u32(): adapter_load_core_reg_u32
Debug: 332 304 hla_target.c:70 adapter_load_core_reg_u32(): load from core reg 1  value 0x200
Debug: 333 304 hla_target.c:55 adapter_load_core_reg_u32(): adapter_load_core_reg_u32
Debug: 334 305 hla_target.c:70 adapter_load_core_reg_u32(): load from core reg 2  value 0x20000110
Debug: 335 305 hla_target.c:55 adapter_load_core_reg_u32(): adapter_load_core_reg_u32
Debug: 336 306 hla_target.c:70 adapter_load_core_reg_u32(): load from core reg 3  value 0x29a
Debug: 337 306 hla_target.c:55 adapter_load_core_reg_u32(): adapter_load_core_reg_u32
Debug: 338 307 hla_target.c:70 adapter_load_core_reg_u32(): load from core reg 4  value 0x27
Debug: 339 307 hla_target.c:55 adapter_load_core_reg_u32(): adapter_load_core_reg_u32
Debug: 340 307 hla_target.c:70 adapter_load_core_reg_u32(): load from core reg 5  value 0x200
Debug: 341 307 hla_target.c:55 adapter_load_core_reg_u32(): adapter_load_core_reg_u32
Debug: 342 308 hla_target.c:70 adapter_load_core_reg_u32(): load from core reg 6  value 0x40011000
Debug: 343 308 hla_target.c:55 adapter_load_core_reg_u32(): adapter_load_core_reg_u32
Debug: 344 309 hla_target.c:70 adapter_load_core_reg_u32(): load from core reg 7  value 0x8001af8
Debug: 345 309 hla_target.c:55 adapter_load_core_reg_u32(): adapter_load_core_reg_u32
Debug: 346 309 hla_target.c:70 adapter_load_core_reg_u32(): load from core reg 8  value 0xefe69a22
Debug: 347 309 hla_target.c:55 adapter_load_core_reg_u32(): adapter_load_core_reg_u32
Debug: 348 310 hla_target.c:70 adapter_load_core_reg_u32(): load from core reg 9  value 0x7101362d
Debug: 349 310 hla_target.c:55 adapter_load_core_reg_u32(): adapter_load_core_reg_u32
Debug: 350 313 hla_target.c:70 adapter_load_core_reg_u32(): load from core reg 10  value 0x46e0bef4
Debug: 351 313 hla_target.c:55 adapter_load_core_reg_u32(): adapter_load_core_reg_u32
Debug: 352 313 hla_target.c:70 adapter_load_core_reg_u32(): load from core reg 11  value 0x5ff2ba7f
Debug: 353 313 hla_target.c:55 adapter_load_core_reg_u32(): adapter_load_core_reg_u32
Debug: 354 314 hla_target.c:70 adapter_load_core_reg_u32(): load from core reg 12  value 0xf
Debug: 355 314 hla_target.c:55 adapter_load_core_reg_u32(): adapter_load_core_reg_u32
Debug: 356 315 hla_target.c:70 adapter_load_core_reg_u32(): load from core reg 13  value 0x20002000
Debug: 357 315 hla_target.c:55 adapter_load_core_reg_u32(): adapter_load_core_reg_u32
Debug: 358 315 hla_target.c:70 adapter_load_core_reg_u32(): load from core reg 14  value 0xffffffff
Debug: 359 315 hla_target.c:55 adapter_load_core_reg_u32(): adapter_load_core_reg_u32
Debug: 360 316 hla_target.c:70 adapter_load_core_reg_u32(): load from core reg 15  value 0x80002dc
Debug: 361 316 hla_target.c:55 adapter_load_core_reg_u32(): adapter_load_core_reg_u32
Debug: 362 317 hla_target.c:70 adapter_load_core_reg_u32(): load from core reg 16  value 0x1000000
Debug: 363 317 hla_target.c:55 adapter_load_core_reg_u32(): adapter_load_core_reg_u32
Debug: 364 317 hla_target.c:70 adapter_load_core_reg_u32(): load from core reg 17  value 0x20002000
Debug: 365 317 hla_target.c:55 adapter_load_core_reg_u32(): adapter_load_core_reg_u32
Debug: 366 318 hla_target.c:70 adapter_load_core_reg_u32(): load from core reg 18  value 0xfb748eec
Debug: 367 318 hla_target.c:55 adapter_load_core_reg_u32(): adapter_load_core_reg_u32
Debug: 368 318 hla_target.c:135 adapter_load_core_reg_u32(): load from special reg 19 value 0x0
Debug: 369 318 hla_target.c:55 adapter_load_core_reg_u32(): adapter_load_core_reg_u32
Debug: 370 319 hla_target.c:135 adapter_load_core_reg_u32(): load from special reg 20 value 0x0
Debug: 371 319 hla_target.c:55 adapter_load_core_reg_u32(): adapter_load_core_reg_u32
Debug: 372 320 hla_target.c:135 adapter_load_core_reg_u32(): load from special reg 21 value 0x0
Debug: 373 320 hla_target.c:55 adapter_load_core_reg_u32(): adapter_load_core_reg_u32
Debug: 374 320 hla_target.c:135 adapter_load_core_reg_u32(): load from special reg 22 value 0x0
Debug: 375 321 hla_target.c:374 adapter_debug_entry(): entered debug state in core mode: Thread at PC 0x080002dc, target->state: halted
Debug: 376 321 target.c:1294 target_call_event_callbacks(): target event 0 (gdb-halt)
Debug: 377 321 target.c:1294 target_call_event_callbacks(): target event 1 (halted)
User : 378 321 target.c:1667 target_arch_state(): target state: halted
User : 379 321 armv7m.c:532 armv7m_arch_state(): target halted due to debug-request, current mode: Thread 
xPSR: 0x01000000 pc: 0x080002dc msp: 0x20002000
Debug: 380 321 target.c:1294 target_call_event_callbacks(): target event 6 (gdb-end)
Debug: 381 321 hla_target.c:412 adapter_poll(): halted: PC: 0x080002dc
Debug: 382 321 command.c:145 script_debug(): command - ocd_command ocd_command type ocd_stm32f1x.cpu curstate
Debug: 383 321 command.c:145 script_debug(): command - ocd_stm32f1x.cpu ocd_stm32f1x.cpu curstate
Debug: 384 321 command.c:145 script_debug(): command - ocd_command ocd_command type ocd_stm32f1x.cpu cget -chain-position
Debug: 385 321 command.c:145 script_debug(): command - ocd_stm32f1x.cpu ocd_stm32f1x.cpu cget -chain-position
Debug: 386 321 command.c:145 script_debug(): command - ocd_command ocd_command type ocd_jtag tapisenabled stm32f1x.cpu
Debug: 387 321 command.c:145 script_debug(): command - ocd_jtag ocd_jtag tapisenabled stm32f1x.cpu
Debug: 388 321 command.c:145 script_debug(): command - ocd_command ocd_command type ocd_stm32f1x.cpu arp_waitstate halted 5000
Debug: 389 321 command.c:145 script_debug(): command - ocd_stm32f1x.cpu ocd_stm32f1x.cpu arp_waitstate halted 5000
Debug: 390 322 command.c:145 script_debug(): command - ocd_command ocd_command type ocd_stm32f1x.cpu invoke-event reset-init
Debug: 391 322 command.c:145 script_debug(): command - ocd_stm32f1x.cpu ocd_stm32f1x.cpu invoke-event reset-init
Debug: 392 322 command.c:145 script_debug(): command - ocd_command ocd_command type ocd_stm32f1x.cpu invoke-event reset-end
Debug: 393 322 command.c:145 script_debug(): command - ocd_stm32f1x.cpu ocd_stm32f1x.cpu invoke-event reset-end
Debug: 394 324 gdb_server.c:2019 gdb_input_inner(): received packet: 'qRcmd,68616c74'
Debug: 395 325 command.c:145 script_debug(): command - ocd_command ocd_command type ocd_halt
Debug: 396 325 command.c:145 script_debug(): command - halt ocd_halt
Debug: 398 326 target.c:2460 handle_halt_command(): -
Debug: 399 326 hla_target.c:519 adapter_halt(): adapter_halt
Debug: 400 326 hla_target.c:522 adapter_halt(): target was already halted
Debug: 401 327 gdb_server.c:2019 gdb_input_inner(): received packet: 'qRcmd,61726d2073656d69686f7374696e6720656e61626c65'
Debug: 402 328 command.c:145 script_debug(): command - ocd_command ocd_command type ocd_arm semihosting enable
Debug: 403 328 command.c:145 script_debug(): command - ocd_arm ocd_arm semihosting enable
User : 405 329 command.c:549 command_print(): semihosting is enabled
Debug: 406 336 gdb_server.c:2019 gdb_input_inner(): received packet: 'qTStatus'
Debug: 407 337 gdb_server.c:2019 gdb_input_inner(): received packet: 'qTStatus'
Debug: 408 337 gdb_server.c:2019 gdb_input_inner(): received packet: 'qTStatus'
Debug: 409 337 gdb_server.c:2019 gdb_input_inner(): received packet: 'qTStatus'
Debug: 410 337 gdb_server.c:2019 gdb_input_inner(): received packet: 'qSymbol::'
Debug: 411 337 gdb_server.c:2019 gdb_input_inner(): received packet: 'qSymbol::'
Debug: 412 340 gdb_server.c:2019 gdb_input_inner(): received packet: 'vFlashErase:08000000,00002000'
Debug: 413 340 target.c:1294 target_call_event_callbacks(): target event 25 (gdb-flash-erase-start)
Debug: 414 340 hla_interface.c:122 hl_interface_execute_queue(): hl_interface_execute_queue: ignored
Debug: 415 340 target.c:1978 target_write_u32(): address: 0x40022004, value: 0x45670123
Debug: 416 340 hla_target.c:745 adapter_write_memory(): adapter_write_memory 0x40022004 4 1
Debug: 417 342 target.c:1978 target_write_u32(): address: 0x40022004, value: 0xcdef89ab
Debug: 418 342 hla_target.c:745 adapter_write_memory(): adapter_write_memory 0x40022004 4 1
Debug: 419 344 target.c:1978 target_write_u32(): address: 0x40022010, value: 0x00000002
Debug: 420 344 hla_target.c:745 adapter_write_memory(): adapter_write_memory 0x40022010 4 1
Debug: 421 345 target.c:1978 target_write_u32(): address: 0x40022014, value: 0x08000000
Debug: 422 345 hla_target.c:745 adapter_write_memory(): adapter_write_memory 0x40022014 4 1
Debug: 423 346 target.c:1978 target_write_u32(): address: 0x40022010, value: 0x00000042
Debug: 424 346 hla_target.c:745 adapter_write_memory(): adapter_write_memory 0x40022010 4 1
Debug: 425 347 hla_target.c:697 adapter_read_memory(): adapter_read_memory 0x4002200c 4 1
Debug: 426 348 target.c:1912 target_read_u32(): address: 0x4002200c, value: 0x00000003
Debug: 427 348 stm32f1x.c:179 stm32x_wait_status_busy(): status: 0x3
Debug: 428 350 hla_target.c:697 adapter_read_memory(): adapter_read_memory 0x4002200c 4 1
Debug: 429 352 target.c:1912 target_read_u32(): address: 0x4002200c, value: 0x00000003
Debug: 430 352 stm32f1x.c:179 stm32x_wait_status_busy(): status: 0x3
Debug: 431 353 hla_target.c:697 adapter_read_memory(): adapter_read_memory 0x4002200c 4 1
Debug: 432 354 target.c:1912 target_read_u32(): address: 0x4002200c, value: 0x00000003
Debug: 433 354 stm32f1x.c:179 stm32x_wait_status_busy(): status: 0x3
Debug: 434 355 hla_target.c:697 adapter_read_memory(): adapter_read_memory 0x4002200c 4 1
Debug: 435 357 target.c:1912 target_read_u32(): address: 0x4002200c, value: 0x00000003
Debug: 436 357 stm32f1x.c:179 stm32x_wait_status_busy(): status: 0x3
Debug: 437 358 hla_target.c:697 adapter_read_memory(): adapter_read_memory 0x4002200c 4 1
Debug: 438 359 target.c:1912 target_read_u32(): address: 0x4002200c, value: 0x00000003
Debug: 439 359 stm32f1x.c:179 stm32x_wait_status_busy(): status: 0x3
Debug: 440 360 hla_target.c:697 adapter_read_memory(): adapter_read_memory 0x4002200c 4 1
Debug: 441 361 target.c:1912 target_read_u32(): address: 0x4002200c, value: 0x00000003
Debug: 442 361 stm32f1x.c:179 stm32x_wait_status_busy(): status: 0x3
Debug: 443 363 hla_target.c:697 adapter_read_memory(): adapter_read_memory 0x4002200c 4 1
Debug: 444 364 target.c:1912 target_read_u32(): address: 0x4002200c, value: 0x00000003
Debug: 445 364 stm32f1x.c:179 stm32x_wait_status_busy(): status: 0x3
Debug: 446 366 hla_target.c:697 adapter_read_memory(): adapter_read_memory 0x4002200c 4 1
Debug: 447 369 target.c:1912 target_read_u32(): address: 0x4002200c, value: 0x00000003
Debug: 448 369 stm32f1x.c:179 stm32x_wait_status_busy(): status: 0x3
Debug: 449 370 hla_target.c:697 adapter_read_memory(): adapter_read_memory 0x4002200c 4 1
Debug: 450 371 target.c:1912 target_read_u32(): address: 0x4002200c, value: 0x00000020
Debug: 451 371 stm32f1x.c:179 stm32x_wait_status_busy(): status: 0x20
Debug: 452 371 target.c:1978 target_write_u32(): address: 0x40022010, value: 0x00000002
Debug: 453 371 hla_target.c:745 adapter_write_memory(): adapter_write_memory 0x40022010 4 1
Debug: 454 372 target.c:1978 target_write_u32(): address: 0x40022014, value: 0x08000400
Debug: 455 372 hla_target.c:745 adapter_write_memory(): adapter_write_memory 0x40022014 4 1
Debug: 456 373 target.c:1978 target_write_u32(): address: 0x40022010, value: 0x00000042
Debug: 457 373 hla_target.c:745 adapter_write_memory(): adapter_write_memory 0x40022010 4 1
Debug: 458 377 hla_target.c:697 adapter_read_memory(): adapter_read_memory 0x4002200c 4 1
Debug: 459 378 target.c:1912 target_read_u32(): address: 0x4002200c, value: 0x00000023
Debug: 460 378 stm32f1x.c:179 stm32x_wait_status_busy(): status: 0x23
Debug: 461 379 hla_target.c:697 adapter_read_memory(): adapter_read_memory 0x4002200c 4 1
Debug: 462 380 target.c:1912 target_read_u32(): address: 0x4002200c, value: 0x00000023
Debug: 463 380 stm32f1x.c:179 stm32x_wait_status_busy(): status: 0x23
Debug: 464 382 hla_target.c:697 adapter_read_memory(): adapter_read_memory 0x4002200c 4 1
Debug: 465 383 target.c:1912 target_read_u32(): address: 0x4002200c, value: 0x00000023
Debug: 466 383 stm32f1x.c:179 stm32x_wait_status_busy(): status: 0x23
Debug: 467 384 hla_target.c:697 adapter_read_memory(): adapter_read_memory 0x4002200c 4 1
Debug: 468 385 target.c:1912 target_read_u32(): address: 0x4002200c, value: 0x00000023
Debug: 469 385 stm32f1x.c:179 stm32x_wait_status_busy(): status: 0x23
Debug: 470 386 hla_target.c:697 adapter_read_memory(): adapter_read_memory 0x4002200c 4 1
Debug: 471 388 target.c:1912 target_read_u32(): address: 0x4002200c, value: 0x00000023
Debug: 472 388 stm32f1x.c:179 stm32x_wait_status_busy(): status: 0x23
Debug: 473 389 hla_target.c:697 adapter_read_memory(): adapter_read_memory 0x4002200c 4 1
Debug: 474 391 target.c:1912 target_read_u32(): address: 0x4002200c, value: 0x00000023
Debug: 475 391 stm32f1x.c:179 stm32x_wait_status_busy(): status: 0x23
Debug: 476 392 hla_target.c:697 adapter_read_memory(): adapter_read_memory 0x4002200c 4 1
Debug: 477 393 target.c:1912 target_read_u32(): address: 0x4002200c, value: 0x00000023
Debug: 478 393 stm32f1x.c:179 stm32x_wait_status_busy(): status: 0x23
Debug: 479 394 hla_target.c:697 adapter_read_memory(): adapter_read_memory 0x4002200c 4 1
Debug: 480 395 target.c:1912 target_read_u32(): address: 0x4002200c, value: 0x00000023
Debug: 481 395 stm32f1x.c:179 stm32x_wait_status_busy(): status: 0x23
Debug: 482 396 hla_target.c:697 adapter_read_memory(): adapter_read_memory 0x4002200c 4 1
Debug: 483 397 target.c:1912 target_read_u32(): address: 0x4002200c, value: 0x00000023
Debug: 484 397 stm32f1x.c:179 stm32x_wait_status_busy(): status: 0x23
Debug: 485 398 hla_target.c:697 adapter_read_memory(): adapter_read_memory 0x4002200c 4 1
Debug: 486 399 target.c:1912 target_read_u32(): address: 0x4002200c, value: 0x00000023
Debug: 487 399 stm32f1x.c:179 stm32x_wait_status_busy(): status: 0x23
Debug: 488 400 hla_target.c:697 adapter_read_memory(): adapter_read_memory 0x4002200c 4 1
Debug: 489 401 target.c:1912 target_read_u32(): address: 0x4002200c, value: 0x00000020
Debug: 490 401 stm32f1x.c:179 stm32x_wait_status_busy(): status: 0x20
Debug: 491 401 target.c:1978 target_write_u32(): address: 0x40022010, value: 0x00000002
Debug: 492 401 hla_target.c:745 adapter_write_memory(): adapter_write_memory 0x40022010 4 1
Debug: 493 402 target.c:1978 target_write_u32(): address: 0x40022014, value: 0x08000800
Debug: 494 402 hla_target.c:745 adapter_write_memory(): adapter_write_memory 0x40022014 4 1
Debug: 495 403 target.c:1978 target_write_u32(): address: 0x40022010, value: 0x00000042
Debug: 496 403 hla_target.c:745 adapter_write_memory(): adapter_write_memory 0x40022010 4 1
Debug: 497 404 hla_target.c:697 adapter_read_memory(): adapter_read_memory 0x4002200c 4 1
Debug: 498 405 target.c:1912 target_read_u32(): address: 0x4002200c, value: 0x00000023
Debug: 499 405 stm32f1x.c:179 stm32x_wait_status_busy(): status: 0x23
Debug: 500 406 hla_target.c:697 adapter_read_memory(): adapter_read_memory 0x4002200c 4 1
Debug: 501 407 target.c:1912 target_read_u32(): address: 0x4002200c, value: 0x00000023
Debug: 502 407 stm32f1x.c:179 stm32x_wait_status_busy(): status: 0x23
Debug: 503 408 hla_target.c:697 adapter_read_memory(): adapter_read_memory 0x4002200c 4 1
Debug: 504 408 target.c:1912 target_read_u32(): address: 0x4002200c, value: 0x00000023
Debug: 505 409 stm32f1x.c:179 stm32x_wait_status_busy(): status: 0x23
Debug: 506 410 hla_target.c:697 adapter_read_memory(): adapter_read_memory 0x4002200c 4 1
Debug: 507 411 target.c:1912 target_read_u32(): address: 0x4002200c, value: 0x00000023
Debug: 508 411 stm32f1x.c:179 stm32x_wait_status_busy(): status: 0x23
Debug: 509 412 hla_target.c:697 adapter_read_memory(): adapter_read_memory 0x4002200c 4 1
Debug: 510 412 target.c:1912 target_read_u32(): address: 0x4002200c, value: 0x00000023
Debug: 511 412 stm32f1x.c:179 stm32x_wait_status_busy(): status: 0x23
Debug: 512 413 hla_target.c:697 adapter_read_memory(): adapter_read_memory 0x4002200c 4 1
Debug: 513 414 target.c:1912 target_read_u32(): address: 0x4002200c, value: 0x00000023
Debug: 514 414 stm32f1x.c:179 stm32x_wait_status_busy(): status: 0x23
Debug: 515 415 hla_target.c:697 adapter_read_memory(): adapter_read_memory 0x4002200c 4 1
Debug: 516 416 target.c:1912 target_read_u32(): address: 0x4002200c, value: 0x00000023
Debug: 517 416 stm32f1x.c:179 stm32x_wait_status_busy(): status: 0x23
Debug: 518 417 hla_target.c:697 adapter_read_memory(): adapter_read_memory 0x4002200c 4 1
Debug: 519 418 target.c:1912 target_read_u32(): address: 0x4002200c, value: 0x00000023
Debug: 520 418 stm32f1x.c:179 stm32x_wait_status_busy(): status: 0x23
Debug: 521 419 hla_target.c:697 adapter_read_memory(): adapter_read_memory 0x4002200c 4 1
Debug: 522 420 target.c:1912 target_read_u32(): address: 0x4002200c, value: 0x00000023
Debug: 523 420 stm32f1x.c:179 stm32x_wait_status_busy(): status: 0x23
Debug: 524 421 hla_target.c:697 adapter_read_memory(): adapter_read_memory 0x4002200c 4 1
Debug: 525 422 target.c:1912 target_read_u32(): address: 0x4002200c, value: 0x00000023
Debug: 526 422 stm32f1x.c:179 stm32x_wait_status_busy(): status: 0x23
Debug: 527 423 hla_target.c:697 adapter_read_memory(): adapter_read_memory 0x4002200c 4 1
Debug: 528 424 target.c:1912 target_read_u32(): address: 0x4002200c, value: 0x00000023
Debug: 529 424 stm32f1x.c:179 stm32x_wait_status_busy(): status: 0x23
Debug: 530 425 hla_target.c:697 adapter_read_memory(): adapter_read_memory 0x4002200c 4 1
Debug: 531 426 target.c:1912 target_read_u32(): address: 0x4002200c, value: 0x00000023
Debug: 532 426 stm32f1x.c:179 stm32x_wait_status_busy(): status: 0x23
Debug: 533 427 hla_target.c:697 adapter_read_memory(): adapter_read_memory 0x4002200c 4 1
Debug: 534 428 target.c:1912 target_read_u32(): address: 0x4002200c, value: 0x00000020
Debug: 535 428 stm32f1x.c:179 stm32x_wait_status_busy(): status: 0x20
Debug: 536 428 target.c:1978 target_write_u32(): address: 0x40022010, value: 0x00000002
Debug: 537 428 hla_target.c:745 adapter_write_memory(): adapter_write_memory 0x40022010 4 1
Debug: 538 429 target.c:1978 target_write_u32(): address: 0x40022014, value: 0x08000c00
Debug: 539 429 hla_target.c:745 adapter_write_memory(): adapter_write_memory 0x40022014 4 1
Debug: 540 430 target.c:1978 target_write_u32(): address: 0x40022010, value: 0x00000042
Debug: 541 430 hla_target.c:745 adapter_write_memory(): adapter_write_memory 0x40022010 4 1
Debug: 542 431 hla_target.c:697 adapter_read_memory(): adapter_read_memory 0x4002200c 4 1
Debug: 543 432 target.c:1912 target_read_u32(): address: 0x4002200c, value: 0x00000023
Debug: 544 432 stm32f1x.c:179 stm32x_wait_status_busy(): status: 0x23
Debug: 545 433 hla_target.c:697 adapter_read_memory(): adapter_read_memory 0x4002200c 4 1
Debug: 546 433 target.c:1912 target_read_u32(): address: 0x4002200c, value: 0x00000023
Debug: 547 434 stm32f1x.c:179 stm32x_wait_status_busy(): status: 0x23
Debug: 548 435 hla_target.c:697 adapter_read_memory(): adapter_read_memory 0x4002200c 4 1
Debug: 549 435 target.c:1912 target_read_u32(): address: 0x4002200c, value: 0x00000023
Debug: 550 435 stm32f1x.c:179 stm32x_wait_status_busy(): status: 0x23
Debug: 551 439 hla_target.c:697 adapter_read_memory(): adapter_read_memory 0x4002200c 4 1
Debug: 552 440 target.c:1912 target_read_u32(): address: 0x4002200c, value: 0x00000023
Debug: 553 440 stm32f1x.c:179 stm32x_wait_status_busy(): status: 0x23
Debug: 554 441 hla_target.c:697 adapter_read_memory(): adapter_read_memory 0x4002200c 4 1
Debug: 555 442 target.c:1912 target_read_u32(): address: 0x4002200c, value: 0x00000023
Debug: 556 442 stm32f1x.c:179 stm32x_wait_status_busy(): status: 0x23
Debug: 557 443 hla_target.c:697 adapter_read_memory(): adapter_read_memory 0x4002200c 4 1
Debug: 558 444 target.c:1912 target_read_u32(): address: 0x4002200c, value: 0x00000023
Debug: 559 444 stm32f1x.c:179 stm32x_wait_status_busy(): status: 0x23
Debug: 560 445 hla_target.c:697 adapter_read_memory(): adapter_read_memory 0x4002200c 4 1
Debug: 561 446 target.c:1912 target_read_u32(): address: 0x4002200c, value: 0x00000023
Debug: 562 446 stm32f1x.c:179 stm32x_wait_status_busy(): status: 0x23
Debug: 563 447 hla_target.c:697 adapter_read_memory(): adapter_read_memory 0x4002200c 4 1
Debug: 564 448 target.c:1912 target_read_u32(): address: 0x4002200c, value: 0x00000023
Debug: 565 448 stm32f1x.c:179 stm32x_wait_status_busy(): status: 0x23
Debug: 566 449 hla_target.c:697 adapter_read_memory(): adapter_read_memory 0x4002200c 4 1
Debug: 567 452 target.c:1912 target_read_u32(): address: 0x4002200c, value: 0x00000023
Debug: 568 452 stm32f1x.c:179 stm32x_wait_status_busy(): status: 0x23
Debug: 569 453 hla_target.c:697 adapter_read_memory(): adapter_read_memory 0x4002200c 4 1
Debug: 570 455 target.c:1912 target_read_u32(): address: 0x4002200c, value: 0x00000020
Debug: 571 455 stm32f1x.c:179 stm32x_wait_status_busy(): status: 0x20
Debug: 572 455 target.c:1978 target_write_u32(): address: 0x40022010, value: 0x00000002
Debug: 573 455 hla_target.c:745 adapter_write_memory(): adapter_write_memory 0x40022010 4 1
Debug: 574 456 target.c:1978 target_write_u32(): address: 0x40022014, value: 0x08001000
Debug: 575 456 hla_target.c:745 adapter_write_memory(): adapter_write_memory 0x40022014 4 1
Debug: 576 456 target.c:1978 target_write_u32(): address: 0x40022010, value: 0x00000042
Debug: 577 457 hla_target.c:745 adapter_write_memory(): adapter_write_memory 0x40022010 4 1
Debug: 578 457 hla_target.c:697 adapter_read_memory(): adapter_read_memory 0x4002200c 4 1
Debug: 579 458 target.c:1912 target_read_u32(): address: 0x4002200c, value: 0x00000023
Debug: 580 459 stm32f1x.c:179 stm32x_wait_status_busy(): status: 0x23
Debug: 581 460 hla_target.c:697 adapter_read_memory(): adapter_read_memory 0x4002200c 4 1
Debug: 582 461 target.c:1912 target_read_u32(): address: 0x4002200c, value: 0x00000023
Debug: 583 461 stm32f1x.c:179 stm32x_wait_status_busy(): status: 0x23
Debug: 584 464 hla_target.c:697 adapter_read_memory(): adapter_read_memory 0x4002200c 4 1
Debug: 585 465 target.c:1912 target_read_u32(): address: 0x4002200c, value: 0x00000023
Debug: 586 465 stm32f1x.c:179 stm32x_wait_status_busy(): status: 0x23
Debug: 587 466 hla_target.c:697 adapter_read_memory(): adapter_read_memory 0x4002200c 4 1
Debug: 588 467 target.c:1912 target_read_u32(): address: 0x4002200c, value: 0x00000023
Debug: 589 467 stm32f1x.c:179 stm32x_wait_status_busy(): status: 0x23
Debug: 590 468 hla_target.c:697 adapter_read_memory(): adapter_read_memory 0x4002200c 4 1
Debug: 591 470 target.c:1912 target_read_u32(): address: 0x4002200c, value: 0x00000023
Debug: 592 470 stm32f1x.c:179 stm32x_wait_status_busy(): status: 0x23
Debug: 593 471 hla_target.c:697 adapter_read_memory(): adapter_read_memory 0x4002200c 4 1
Debug: 594 473 target.c:1912 target_read_u32(): address: 0x4002200c, value: 0x00000023
Debug: 595 473 stm32f1x.c:179 stm32x_wait_status_busy(): status: 0x23
Debug: 596 474 hla_target.c:697 adapter_read_memory(): adapter_read_memory 0x4002200c 4 1
Debug: 597 475 target.c:1912 target_read_u32(): address: 0x4002200c, value: 0x00000023
Debug: 598 475 stm32f1x.c:179 stm32x_wait_status_busy(): status: 0x23
Debug: 599 476 hla_target.c:697 adapter_read_memory(): adapter_read_memory 0x4002200c 4 1
Debug: 600 478 target.c:1912 target_read_u32(): address: 0x4002200c, value: 0x00000023
Debug: 601 478 stm32f1x.c:179 stm32x_wait_status_busy(): status: 0x23
Debug: 602 479 hla_target.c:697 adapter_read_memory(): adapter_read_memory 0x4002200c 4 1
Debug: 603 480 target.c:1912 target_read_u32(): address: 0x4002200c, value: 0x00000020
Debug: 604 480 stm32f1x.c:179 stm32x_wait_status_busy(): status: 0x20
Debug: 605 480 target.c:1978 target_write_u32(): address: 0x40022010, value: 0x00000002
Debug: 606 480 hla_target.c:745 adapter_write_memory(): adapter_write_memory 0x40022010 4 1
Debug: 607 481 target.c:1978 target_write_u32(): address: 0x40022014, value: 0x08001400
Debug: 608 481 hla_target.c:745 adapter_write_memory(): adapter_write_memory 0x40022014 4 1
Debug: 609 482 target.c:1978 target_write_u32(): address: 0x40022010, value: 0x00000042
Debug: 610 482 hla_target.c:745 adapter_write_memory(): adapter_write_memory 0x40022010 4 1
Debug: 611 483 hla_target.c:697 adapter_read_memory(): adapter_read_memory 0x4002200c 4 1
Debug: 612 484 target.c:1912 target_read_u32(): address: 0x4002200c, value: 0x00000023
Debug: 613 484 stm32f1x.c:179 stm32x_wait_status_busy(): status: 0x23
Debug: 614 485 hla_target.c:697 adapter_read_memory(): adapter_read_memory 0x4002200c 4 1
Debug: 615 486 target.c:1912 target_read_u32(): address: 0x4002200c, value: 0x00000023
Debug: 616 486 stm32f1x.c:179 stm32x_wait_status_busy(): status: 0x23
Debug: 617 487 hla_target.c:697 adapter_read_memory(): adapter_read_memory 0x4002200c 4 1
Debug: 618 488 target.c:1912 target_read_u32(): address: 0x4002200c, value: 0x00000023
Debug: 619 488 stm32f1x.c:179 stm32x_wait_status_busy(): status: 0x23
Debug: 620 489 hla_target.c:697 adapter_read_memory(): adapter_read_memory 0x4002200c 4 1
Debug: 621 491 target.c:1912 target_read_u32(): address: 0x4002200c, value: 0x00000023
Debug: 622 491 stm32f1x.c:179 stm32x_wait_status_busy(): status: 0x23
Debug: 623 495 hla_target.c:697 adapter_read_memory(): adapter_read_memory 0x4002200c 4 1
Debug: 624 496 target.c:1912 target_read_u32(): address: 0x4002200c, value: 0x00000023
Debug: 625 496 stm32f1x.c:179 stm32x_wait_status_busy(): status: 0x23
Debug: 626 497 hla_target.c:697 adapter_read_memory(): adapter_read_memory 0x4002200c 4 1
Debug: 627 501 target.c:1912 target_read_u32(): address: 0x4002200c, value: 0x00000023
Debug: 628 501 stm32f1x.c:179 stm32x_wait_status_busy(): status: 0x23
Debug: 629 502 hla_target.c:697 adapter_read_memory(): adapter_read_memory 0x4002200c 4 1
Debug: 630 505 target.c:1912 target_read_u32(): address: 0x4002200c, value: 0x00000023
Debug: 631 505 stm32f1x.c:179 stm32x_wait_status_busy(): status: 0x23
Debug: 632 509 hla_target.c:697 adapter_read_memory(): adapter_read_memory 0x4002200c 4 1
Debug: 633 510 target.c:1912 target_read_u32(): address: 0x4002200c, value: 0x00000020
Debug: 634 510 stm32f1x.c:179 stm32x_wait_status_busy(): status: 0x20
Debug: 635 510 target.c:1978 target_write_u32(): address: 0x40022010, value: 0x00000002
Debug: 636 510 hla_target.c:745 adapter_write_memory(): adapter_write_memory 0x40022010 4 1
Debug: 637 511 target.c:1978 target_write_u32(): address: 0x40022014, value: 0x08001800
Debug: 638 511 hla_target.c:745 adapter_write_memory(): adapter_write_memory 0x40022014 4 1
Debug: 639 512 target.c:1978 target_write_u32(): address: 0x40022010, value: 0x00000042
Debug: 640 512 hla_target.c:745 adapter_write_memory(): adapter_write_memory 0x40022010 4 1
Debug: 641 513 hla_target.c:697 adapter_read_memory(): adapter_read_memory 0x4002200c 4 1
Debug: 642 514 target.c:1912 target_read_u32(): address: 0x4002200c, value: 0x00000023
Debug: 643 514 stm32f1x.c:179 stm32x_wait_status_busy(): status: 0x23
Debug: 644 515 hla_target.c:697 adapter_read_memory(): adapter_read_memory 0x4002200c 4 1
Debug: 645 517 target.c:1912 target_read_u32(): address: 0x4002200c, value: 0x00000023
Debug: 646 517 stm32f1x.c:179 stm32x_wait_status_busy(): status: 0x23
Debug: 647 518 hla_target.c:697 adapter_read_memory(): adapter_read_memory 0x4002200c 4 1
Debug: 648 519 target.c:1912 target_read_u32(): address: 0x4002200c, value: 0x00000023
Debug: 649 519 stm32f1x.c:179 stm32x_wait_status_busy(): status: 0x23
Debug: 650 520 hla_target.c:697 adapter_read_memory(): adapter_read_memory 0x4002200c 4 1
Debug: 651 521 target.c:1912 target_read_u32(): address: 0x4002200c, value: 0x00000023
Debug: 652 521 stm32f1x.c:179 stm32x_wait_status_busy(): status: 0x23
Debug: 653 522 hla_target.c:697 adapter_read_memory(): adapter_read_memory 0x4002200c 4 1
Debug: 654 523 target.c:1912 target_read_u32(): address: 0x4002200c, value: 0x00000023
Debug: 655 523 stm32f1x.c:179 stm32x_wait_status_busy(): status: 0x23
Debug: 656 524 hla_target.c:697 adapter_read_memory(): adapter_read_memory 0x4002200c 4 1
Debug: 657 526 target.c:1912 target_read_u32(): address: 0x4002200c, value: 0x00000023
Debug: 658 526 stm32f1x.c:179 stm32x_wait_status_busy(): status: 0x23
Debug: 659 527 hla_target.c:697 adapter_read_memory(): adapter_read_memory 0x4002200c 4 1
Debug: 660 528 target.c:1912 target_read_u32(): address: 0x4002200c, value: 0x00000023
Debug: 661 529 stm32f1x.c:179 stm32x_wait_status_busy(): status: 0x23
Debug: 662 530 hla_target.c:697 adapter_read_memory(): adapter_read_memory 0x4002200c 4 1
Debug: 663 530 target.c:1912 target_read_u32(): address: 0x4002200c, value: 0x00000023
Debug: 664 531 stm32f1x.c:179 stm32x_wait_status_busy(): status: 0x23
Debug: 665 532 hla_target.c:697 adapter_read_memory(): adapter_read_memory 0x4002200c 4 1
Debug: 666 533 target.c:1912 target_read_u32(): address: 0x4002200c, value: 0x00000023
Debug: 667 533 stm32f1x.c:179 stm32x_wait_status_busy(): status: 0x23
Debug: 668 535 hla_target.c:697 adapter_read_memory(): adapter_read_memory 0x4002200c 4 1
Debug: 669 537 target.c:1912 target_read_u32(): address: 0x4002200c, value: 0x00000020
Debug: 670 537 stm32f1x.c:179 stm32x_wait_status_busy(): status: 0x20
Debug: 671 537 target.c:1978 target_write_u32(): address: 0x40022010, value: 0x00000002
Debug: 672 537 hla_target.c:745 adapter_write_memory(): adapter_write_memory 0x40022010 4 1
Debug: 673 539 target.c:1978 target_write_u32(): address: 0x40022014, value: 0x08001c00
Debug: 674 539 hla_target.c:745 adapter_write_memory(): adapter_write_memory 0x40022014 4 1
Debug: 675 540 target.c:1978 target_write_u32(): address: 0x40022010, value: 0x00000042
Debug: 676 540 hla_target.c:745 adapter_write_memory(): adapter_write_memory 0x40022010 4 1
Debug: 677 541 hla_target.c:697 adapter_read_memory(): adapter_read_memory 0x4002200c 4 1
Debug: 678 542 target.c:1912 target_read_u32(): address: 0x4002200c, value: 0x00000023
Debug: 679 542 stm32f1x.c:179 stm32x_wait_status_busy(): status: 0x23
Debug: 680 543 hla_target.c:697 adapter_read_memory(): adapter_read_memory 0x4002200c 4 1
Debug: 681 544 target.c:1912 target_read_u32(): address: 0x4002200c, value: 0x00000023
Debug: 682 544 stm32f1x.c:179 stm32x_wait_status_busy(): status: 0x23
Debug: 683 546 hla_target.c:697 adapter_read_memory(): adapter_read_memory 0x4002200c 4 1
Debug: 684 546 target.c:1912 target_read_u32(): address: 0x4002200c, value: 0x00000023
Debug: 685 546 stm32f1x.c:179 stm32x_wait_status_busy(): status: 0x23
Debug: 686 548 hla_target.c:697 adapter_read_memory(): adapter_read_memory 0x4002200c 4 1
Debug: 687 548 target.c:1912 target_read_u32(): address: 0x4002200c, value: 0x00000023
Debug: 688 548 stm32f1x.c:179 stm32x_wait_status_busy(): status: 0x23
Debug: 689 550 hla_target.c:697 adapter_read_memory(): adapter_read_memory 0x4002200c 4 1
Debug: 690 551 target.c:1912 target_read_u32(): address: 0x4002200c, value: 0x00000023
Debug: 691 551 stm32f1x.c:179 stm32x_wait_status_busy(): status: 0x23
Debug: 692 552 hla_target.c:697 adapter_read_memory(): adapter_read_memory 0x4002200c 4 1
Debug: 693 557 target.c:1912 target_read_u32(): address: 0x4002200c, value: 0x00000023
Debug: 694 557 stm32f1x.c:179 stm32x_wait_status_busy(): status: 0x23
Debug: 695 558 hla_target.c:697 adapter_read_memory(): adapter_read_memory 0x4002200c 4 1
Debug: 696 559 target.c:1912 target_read_u32(): address: 0x4002200c, value: 0x00000023
Debug: 697 559 stm32f1x.c:179 stm32x_wait_status_busy(): status: 0x23
Debug: 698 561 hla_target.c:697 adapter_read_memory(): adapter_read_memory 0x4002200c 4 1
Debug: 699 561 target.c:1912 target_read_u32(): address: 0x4002200c, value: 0x00000023
Debug: 700 561 stm32f1x.c:179 stm32x_wait_status_busy(): status: 0x23
Debug: 701 563 hla_target.c:697 adapter_read_memory(): adapter_read_memory 0x4002200c 4 1
Debug: 702 563 target.c:1912 target_read_u32(): address: 0x4002200c, value: 0x00000020
Debug: 703 563 stm32f1x.c:179 stm32x_wait_status_busy(): status: 0x20
Debug: 704 563 target.c:1978 target_write_u32(): address: 0x40022010, value: 0x00000080
Debug: 705 563 hla_target.c:745 adapter_write_memory(): adapter_write_memory 0x40022010 4 1
Debug: 706 564 target.c:1294 target_call_event_callbacks(): target event 26 (gdb-flash-erase-end)
Debug: 707 567 gdb_server.c:2019 gdb_input_inner(): received packet: 'vFlashWrite:8000000:'
Debug: 708 572 gdb_server.c:2019 gdb_input_inner(): received packet: 'vFlashWrite:800030c:-AFFIKBcBcBcBcBcBcB=H!'
Debug: 709 574 gdb_server.c:2019 gdb_input_inner(): received packet: 'vFlashWrite:8001ba0:xV4'
Debug: 710 574 gdb_server.c:2019 gdb_input_inner(): received packet: 'vFlashDone'
Debug: 711 574 target.c:1294 target_call_event_callbacks(): target event 27 (gdb-flash-write-start)
Info : 712 575 core.c:641 flash_write_unlock(): Padding image section 0 with 1 bytes
Debug: 713 575 core.c:703 flash_write_unlock(): image_read_section: section = 0, t_section_num = 0, section_offset = 0, buffer_size = 0, size_read = 7071
Debug: 714 575 core.c:703 flash_write_unlock(): image_read_section: section = 1, t_section_num = 1, section_offset = 0, buffer_size = 7072, size_read = 120
Debug: 715 575 target.c:1978 target_write_u32(): address: 0x40022004, value: 0x45670123
Debug: 716 575 hla_target.c:745 adapter_write_memory(): adapter_write_memory 0x40022004 4 1
Debug: 717 576 target.c:1978 target_write_u32(): address: 0x40022004, value: 0xcdef89ab
Debug: 718 576 hla_target.c:745 adapter_write_memory(): adapter_write_memory 0x40022004 4 1
Debug: 719 577 target.c:1978 target_write_u32(): address: 0x40022010, value: 0x00000001
Debug: 720 577 hla_target.c:745 adapter_write_memory(): adapter_write_memory 0x40022010 4 1
Debug: 721 578 target.c:1465 target_alloc_working_area_try(): MMU disabled, using physical address for working memory 0x20000000
Debug: 722 578 target.c:1518 target_alloc_working_area_try(): allocated new working area of 60 bytes at address 0x20000000
Debug: 723 578 target.c:1381 print_wa_layout():  * 0x20000000-0x2000003b (60 bytes)
Debug: 724 578 target.c:1381 print_wa_layout():    0x2000003c-0x20001fff (8132 bytes)
Debug: 725 578 target.c:1683 target_write_buffer(): writing buffer of 60 byte at 0x20000000
Debug: 726 578 hla_target.c:745 adapter_write_memory(): adapter_write_memory 0x20000000 4 15
Debug: 727 580 target.c:1518 target_alloc_working_area_try(): allocated new working area of 4096 bytes at address 0x2000003c
Debug: 728 580 target.c:1381 print_wa_layout():  * 0x20000000-0x2000003b (60 bytes)
Debug: 729 580 target.c:1381 print_wa_layout():  * 0x2000003c-0x2000103b (4096 bytes)
Debug: 730 580 target.c:1381 print_wa_layout():    0x2000103c-0x20001fff (4036 bytes)
Debug: 731 580 target.c:1978 target_write_u32(): address: 0x2000003c, value: 0x20000044
Debug: 732 580 hla_target.c:745 adapter_write_memory(): adapter_write_memory 0x2000003c 4 1
Debug: 733 581 target.c:1978 target_write_u32(): address: 0x20000040, value: 0x20000044
Debug: 734 581 hla_target.c:745 adapter_write_memory(): adapter_write_memory 0x20000040 4 1
Debug: 735 582 target.c:1294 target_call_event_callbacks(): target event 3 (resume-start)
Debug: 736 582 hla_target.c:551 adapter_resume(): adapter_resume 0 0x20000000 1 1
Debug: 737 582 target.c:1978 target_write_u32(): address: 0xe000edfc, value: 0x01000000
Debug: 738 582 hla_target.c:745 adapter_write_memory(): adapter_write_memory 0xe000edfc 4 1
Debug: 739 583 armv7m.c:140 armv7m_restore_context():  
Debug: 740 583 hla_target.c:153 adapter_store_core_reg_u32(): adapter_store_core_reg_u32
Debug: 741 584 hla_target.c:183 adapter_store_core_reg_u32(): write core reg 15 value 0x20000000
Debug: 742 584 armv7m.c:249 armv7m_write_core_reg(): write core reg 15 value 0x20000000
Debug: 743 584 hla_target.c:153 adapter_store_core_reg_u32(): adapter_store_core_reg_u32
Debug: 744 585 hla_target.c:183 adapter_store_core_reg_u32(): write core reg 4 value 0x8000000
Debug: 745 585 armv7m.c:249 armv7m_write_core_reg(): write core reg 4 value 0x8000000
Debug: 746 585 hla_target.c:153 adapter_store_core_reg_u32(): adapter_store_core_reg_u32
Debug: 747 586 hla_target.c:183 adapter_store_core_reg_u32(): write core reg 3 value 0x2000103c
Debug: 748 586 armv7m.c:249 armv7m_write_core_reg(): write core reg 3 value 0x2000103c
Debug: 749 586 hla_target.c:153 adapter_store_core_reg_u32(): adapter_store_core_reg_u32
Debug: 750 587 hla_target.c:183 adapter_store_core_reg_u32(): write core reg 2 value 0x2000003c
Debug: 751 587 armv7m.c:249 armv7m_write_core_reg(): write core reg 2 value 0x2000003c
Debug: 752 587 hla_target.c:153 adapter_store_core_reg_u32(): adapter_store_core_reg_u32
Debug: 753 588 hla_target.c:183 adapter_store_core_reg_u32(): write core reg 1 value 0xe0c
Debug: 754 588 armv7m.c:249 armv7m_write_core_reg(): write core reg 1 value 0xe0c
Debug: 755 588 hla_target.c:153 adapter_store_core_reg_u32(): adapter_store_core_reg_u32
Debug: 756 588 hla_target.c:183 adapter_store_core_reg_u32(): write core reg 0 value 0x40022000
Debug: 757 588 armv7m.c:249 armv7m_write_core_reg(): write core reg 0 value 0x40022000
Debug: 758 589 target.c:1294 target_call_event_callbacks(): target event 20 (debug-resumed)
Debug: 759 589 target.c:1294 target_call_event_callbacks(): target event 4 (resume-end)
Debug: 760 589 hla_target.c:697 adapter_read_memory(): adapter_read_memory 0x20000040 4 1
Debug: 761 590 target.c:1912 target_read_u32(): address: 0x20000040, value: 0x20000044
Debug: 762 590 target.c:849 target_run_flash_async_algorithm(): count 0xe0c wp 0x20000044 rp 0x20000044
Debug: 763 590 target.c:1683 target_write_buffer(): writing buffer of 4086 byte at 0x20000044
Debug: 764 590 hla_target.c:745 adapter_write_memory(): adapter_write_memory 0x20000044 4 1021
Debug: 765 705 hla_target.c:745 adapter_write_memory(): adapter_write_memory 0x20001038 1 2
Debug: 766 706 target.c:1978 target_write_u32(): address: 0x2000003c, value: 0x2000103a
Debug: 767 706 hla_target.c:745 adapter_write_memory(): adapter_write_memory 0x2000003c 4 1
Debug: 768 707 hla_target.c:697 adapter_read_memory(): adapter_read_memory 0x20000040 4 1
Debug: 769 708 target.c:1912 target_read_u32(): address: 0x20000040, value: 0x2000005e
Debug: 770 708 target.c:849 target_run_flash_async_algorithm(): count 0x611 wp 0x2000103a rp 0x2000005e
Debug: 771 708 target.c:1683 target_write_buffer(): writing buffer of 2 byte at 0x2000103a
Debug: 772 708 hla_target.c:745 adapter_write_memory(): adapter_write_memory 0x2000103a 2 1
Debug: 773 709 target.c:1978 target_write_u32(): address: 0x2000003c, value: 0x20000044
Debug: 774 710 hla_target.c:745 adapter_write_memory(): adapter_write_memory 0x2000003c 4 1
Debug: 775 710 hla_target.c:697 adapter_read_memory(): adapter_read_memory 0x20000040 4 1
Debug: 776 711 target.c:1912 target_read_u32(): address: 0x20000040, value: 0x200000d2
Debug: 777 711 target.c:849 target_run_flash_async_algorithm(): count 0x610 wp 0x20000044 rp 0x200000d2
Debug: 778 711 target.c:1683 target_write_buffer(): writing buffer of 140 byte at 0x20000044
Debug: 779 711 hla_target.c:745 adapter_write_memory(): adapter_write_memory 0x20000044 4 35
Debug: 780 716 target.c:1978 target_write_u32(): address: 0x2000003c, value: 0x200000d0
Debug: 781 716 hla_target.c:745 adapter_write_memory(): adapter_write_memory 0x2000003c 4 1
Debug: 782 717 hla_target.c:697 adapter_read_memory(): adapter_read_memory 0x20000040 4 1
Debug: 783 718 target.c:1912 target_read_u32(): address: 0x20000040, value: 0x200001b2
Debug: 784 718 target.c:849 target_run_flash_async_algorithm(): count 0x5ca wp 0x200000d0 rp 0x200001b2
Debug: 785 718 target.c:1683 target_write_buffer(): writing buffer of 224 byte at 0x200000d0
Debug: 786 718 hla_target.c:745 adapter_write_memory(): adapter_write_memory 0x200000d0 4 56
Debug: 787 724 target.c:1978 target_write_u32(): address: 0x2000003c, value: 0x200001b0
Debug: 788 724 hla_target.c:745 adapter_write_memory(): adapter_write_memory 0x2000003c 4 1
Debug: 789 725 hla_target.c:697 adapter_read_memory(): adapter_read_memory 0x20000040 4 1
Debug: 790 726 target.c:1912 target_read_u32(): address: 0x20000040, value: 0x200002bc
Debug: 791 726 target.c:849 target_run_flash_async_algorithm(): count 0x55a wp 0x200001b0 rp 0x200002bc
Debug: 792 726 target.c:1683 target_write_buffer(): writing buffer of 266 byte at 0x200001b0
Debug: 793 726 hla_target.c:745 adapter_write_memory(): adapter_write_memory 0x200001b0 4 66
Debug: 794 732 hla_target.c:745 adapter_write_memory(): adapter_write_memory 0x200002b8 1 2
Debug: 795 734 target.c:1978 target_write_u32(): address: 0x2000003c, value: 0x200002ba
Debug: 796 734 hla_target.c:745 adapter_write_memory(): adapter_write_memory 0x2000003c 4 1
Debug: 797 735 hla_target.c:697 adapter_read_memory(): adapter_read_memory 0x20000040 4 1
Debug: 798 736 target.c:1912 target_read_u32(): address: 0x20000040, value: 0x20000414
Debug: 799 736 target.c:849 target_run_flash_async_algorithm(): count 0x4d5 wp 0x200002ba rp 0x20000414
Debug: 800 736 target.c:1683 target_write_buffer(): writing buffer of 344 byte at 0x200002ba
Debug: 801 736 hla_target.c:745 adapter_write_memory(): adapter_write_memory 0x200002ba 1 2
Debug: 802 738 hla_target.c:745 adapter_write_memory(): adapter_write_memory 0x200002bc 4 85
Debug: 803 747 hla_target.c:745 adapter_write_memory(): adapter_write_memory 0x20000410 1 2
Debug: 804 748 target.c:1978 target_write_u32(): address: 0x2000003c, value: 0x20000412
Debug: 805 748 hla_target.c:745 adapter_write_memory(): adapter_write_memory 0x2000003c 4 1
Debug: 806 749 hla_target.c:697 adapter_read_memory(): adapter_read_memory 0x20000040 4 1
Debug: 807 750 target.c:1912 target_read_u32(): address: 0x20000040, value: 0x200005f6
Debug: 808 750 target.c:849 target_run_flash_async_algorithm(): count 0x429 wp 0x20000412 rp 0x200005f6
Debug: 809 750 target.c:1683 target_write_buffer(): writing buffer of 482 byte at 0x20000412
Debug: 810 750 hla_target.c:745 adapter_write_memory(): adapter_write_memory 0x20000412 1 2
Debug: 811 751 hla_target.c:745 adapter_write_memory(): adapter_write_memory 0x20000414 4 120
Debug: 812 765 target.c:1978 target_write_u32(): address: 0x2000003c, value: 0x200005f4
Debug: 813 765 hla_target.c:745 adapter_write_memory(): adapter_write_memory 0x2000003c 4 1
Debug: 814 766 hla_target.c:697 adapter_read_memory(): adapter_read_memory 0x20000040 4 1
Debug: 815 767 target.c:1912 target_read_u32(): address: 0x20000040, value: 0x20000836
Debug: 816 767 target.c:849 target_run_flash_async_algorithm(): count 0x338 wp 0x200005f4 rp 0x20000836
Debug: 817 767 target.c:1683 target_write_buffer(): writing buffer of 576 byte at 0x200005f4
Debug: 818 767 hla_target.c:745 adapter_write_memory(): adapter_write_memory 0x200005f4 4 144
Debug: 819 789 target.c:1978 target_write_u32(): address: 0x2000003c, value: 0x20000834
Debug: 820 789 hla_target.c:745 adapter_write_memory(): adapter_write_memory 0x2000003c 4 1
Debug: 821 790 hla_target.c:697 adapter_read_memory(): adapter_read_memory 0x20000040 4 1
Debug: 822 790 target.c:1912 target_read_u32(): address: 0x20000040, value: 0x20000b5a
Debug: 823 790 target.c:849 target_run_flash_async_algorithm(): count 0x218 wp 0x20000834 rp 0x20000b5a
Debug: 824 790 target.c:1683 target_write_buffer(): writing buffer of 804 byte at 0x20000834
Debug: 825 791 hla_target.c:745 adapter_write_memory(): adapter_write_memory 0x20000834 4 201
Debug: 826 813 target.c:1978 target_write_u32(): address: 0x2000003c, value: 0x20000b58
Debug: 827 813 hla_target.c:745 adapter_write_memory(): adapter_write_memory 0x2000003c 4 1
Debug: 828 814 hla_target.c:697 adapter_read_memory(): adapter_read_memory 0x20000040 4 1
Debug: 829 815 target.c:1912 target_read_u32(): address: 0x20000040, value: 0x20000ea0
Debug: 830 815 target.c:849 target_run_flash_async_algorithm(): count 0x86 wp 0x20000b58 rp 0x20000ea0
Debug: 831 815 target.c:1683 target_write_buffer(): writing buffer of 268 byte at 0x20000b58
Debug: 832 815 hla_target.c:745 adapter_write_memory(): adapter_write_memory 0x20000b58 4 67
Debug: 833 823 target.c:1978 target_write_u32(): address: 0x2000003c, value: 0x20000c64
Debug: 834 823 hla_target.c:745 adapter_write_memory(): adapter_write_memory 0x2000003c 4 1
Debug: 835 824 target.c:2442 target_wait_state(): waiting for target halted...
Debug: 836 919 hla_target.c:55 adapter_load_core_reg_u32(): adapter_load_core_reg_u32
Debug: 837 920 hla_target.c:70 adapter_load_core_reg_u32(): load from core reg 0  value 0x20
Debug: 838 920 hla_target.c:55 adapter_load_core_reg_u32(): adapter_load_core_reg_u32
Debug: 839 921 hla_target.c:70 adapter_load_core_reg_u32(): load from core reg 1  value 0x0
Debug: 840 921 hla_target.c:55 adapter_load_core_reg_u32(): adapter_load_core_reg_u32
Debug: 841 921 hla_target.c:70 adapter_load_core_reg_u32(): load from core reg 2  value 0x2000003c
Debug: 842 921 hla_target.c:55 adapter_load_core_reg_u32(): adapter_load_core_reg_u32
Debug: 843 922 hla_target.c:70 adapter_load_core_reg_u32(): load from core reg 3  value 0x2000103c
Debug: 844 922 hla_target.c:55 adapter_load_core_reg_u32(): adapter_load_core_reg_u32
Debug: 845 922 hla_target.c:70 adapter_load_core_reg_u32(): load from core reg 4  value 0x8001c18
Debug: 846 922 hla_target.c:55 adapter_load_core_reg_u32(): adapter_load_core_reg_u32
Debug: 847 923 hla_target.c:70 adapter_load_core_reg_u32(): load from core reg 5  value 0x20000c64
Debug: 848 923 hla_target.c:55 adapter_load_core_reg_u32(): adapter_load_core_reg_u32
Debug: 849 924 hla_target.c:70 adapter_load_core_reg_u32(): load from core reg 6  value 0x20
Debug: 850 924 hla_target.c:55 adapter_load_core_reg_u32(): adapter_load_core_reg_u32
Debug: 851 924 hla_target.c:70 adapter_load_core_reg_u32(): load from core reg 7  value 0x14
Debug: 852 924 hla_target.c:55 adapter_load_core_reg_u32(): adapter_load_core_reg_u32
Debug: 853 925 hla_target.c:70 adapter_load_core_reg_u32(): load from core reg 8  value 0xefe69a22
Debug: 854 925 hla_target.c:55 adapter_load_core_reg_u32(): adapter_load_core_reg_u32
Debug: 855 926 hla_target.c:70 adapter_load_core_reg_u32(): load from core reg 9  value 0x7101362d
Debug: 856 926 hla_target.c:55 adapter_load_core_reg_u32(): adapter_load_core_reg_u32
Debug: 857 926 hla_target.c:70 adapter_load_core_reg_u32(): load from core reg 10  value 0x46e0bef4
Debug: 858 926 hla_target.c:55 adapter_load_core_reg_u32(): adapter_load_core_reg_u32
Debug: 859 927 hla_target.c:70 adapter_load_core_reg_u32(): load from core reg 11  value 0x5ff2ba7f
Debug: 860 927 hla_target.c:55 adapter_load_core_reg_u32(): adapter_load_core_reg_u32
Debug: 861 927 hla_target.c:70 adapter_load_core_reg_u32(): load from core reg 12  value 0xf
Debug: 862 927 hla_target.c:55 adapter_load_core_reg_u32(): adapter_load_core_reg_u32
Debug: 863 928 hla_target.c:70 adapter_load_core_reg_u32(): load from core reg 13  value 0x20002000
Debug: 864 928 hla_target.c:55 adapter_load_core_reg_u32(): adapter_load_core_reg_u32
Debug: 865 929 hla_target.c:70 adapter_load_core_reg_u32(): load from core reg 14  value 0xffffffff
Debug: 866 929 hla_target.c:55 adapter_load_core_reg_u32(): adapter_load_core_reg_u32
Debug: 867 929 hla_target.c:70 adapter_load_core_reg_u32(): load from core reg 15  value 0x2000003a
Debug: 868 929 hla_target.c:55 adapter_load_core_reg_u32(): adapter_load_core_reg_u32
Debug: 869 930 hla_target.c:70 adapter_load_core_reg_u32(): load from core reg 16  value 0x61000000
Debug: 870 930 hla_target.c:55 adapter_load_core_reg_u32(): adapter_load_core_reg_u32
Debug: 871 931 hla_target.c:70 adapter_load_core_reg_u32(): load from core reg 17  value 0x20002000
Debug: 872 931 hla_target.c:55 adapter_load_core_reg_u32(): adapter_load_core_reg_u32
Debug: 873 931 hla_target.c:70 adapter_load_core_reg_u32(): load from core reg 18  value 0xfb748eec
Debug: 874 931 hla_target.c:55 adapter_load_core_reg_u32(): adapter_load_core_reg_u32
Debug: 875 932 hla_target.c:135 adapter_load_core_reg_u32(): load from special reg 19 value 0x0
Debug: 876 932 hla_target.c:55 adapter_load_core_reg_u32(): adapter_load_core_reg_u32
Debug: 877 932 hla_target.c:135 adapter_load_core_reg_u32(): load from special reg 20 value 0x0
Debug: 878 932 hla_target.c:55 adapter_load_core_reg_u32(): adapter_load_core_reg_u32
Debug: 879 937 hla_target.c:135 adapter_load_core_reg_u32(): load from special reg 21 value 0x0
Debug: 880 937 hla_target.c:55 adapter_load_core_reg_u32(): adapter_load_core_reg_u32
Debug: 881 937 hla_target.c:135 adapter_load_core_reg_u32(): load from special reg 22 value 0x0
Debug: 882 938 hla_target.c:374 adapter_debug_entry(): entered debug state in core mode: Thread at PC 0x2000003a, target->state: halted
Debug: 883 938 target.c:1294 target_call_event_callbacks(): target event 19 (debug-halted)
Debug: 884 938 hla_target.c:412 adapter_poll(): halted: PC: 0x2000003a
Debug: 885 938 hla_target.c:55 adapter_load_core_reg_u32(): adapter_load_core_reg_u32
Debug: 886 938 hla_target.c:70 adapter_load_core_reg_u32(): load from core reg 15  value 0x2000003a
Debug: 887 938 armv7m.c:491 armv7m_wait_algorithm(): restoring register xPSR with value 0x01000000
Debug: 888 938 armv7m.c:491 armv7m_wait_algorithm(): restoring register pc with value 0x080002dc
Debug: 889 938 armv7m.c:491 armv7m_wait_algorithm(): restoring register r7 with value 0x08001af8
Debug: 890 938 armv7m.c:491 armv7m_wait_algorithm(): restoring register r6 with value 0x40011000
Debug: 891 938 armv7m.c:491 armv7m_wait_algorithm(): restoring register r5 with value 0x00000200
Debug: 892 938 armv7m.c:491 armv7m_wait_algorithm(): restoring register r4 with value 0x00000027
Debug: 893 938 armv7m.c:491 armv7m_wait_algorithm(): restoring register r3 with value 0x0000029a
Debug: 894 938 armv7m.c:491 armv7m_wait_algorithm(): restoring register r2 with value 0x20000110
Debug: 895 938 armv7m.c:491 armv7m_wait_algorithm(): restoring register r1 with value 0x00000200
Debug: 896 938 armv7m.c:491 armv7m_wait_algorithm(): restoring register r0 with value 0x0000029a
Debug: 897 938 target.c:1587 target_free_working_area_restore(): freed 4096 bytes of working area at address 0x2000003c
Debug: 898 938 target.c:1381 print_wa_layout():  * 0x20000000-0x2000003b (60 bytes)
Debug: 899 938 target.c:1381 print_wa_layout():    0x2000003c-0x20001fff (8132 bytes)
Debug: 900 938 target.c:1587 target_free_working_area_restore(): freed 60 bytes of working area at address 0x20000000
Debug: 901 938 target.c:1381 print_wa_layout():    0x20000000-0x20001fff (8192 bytes)
Debug: 902 938 target.c:1978 target_write_u32(): address: 0x40022010, value: 0x00000080
Debug: 903 938 hla_target.c:745 adapter_write_memory(): adapter_write_memory 0x40022010 4 1
Debug: 904 939 target.c:1294 target_call_event_callbacks(): target event 28 (gdb-flash-write-end)
Debug: 905 939 gdb_server.c:1931 gdb_v_packet(): wrote 7192 bytes from vFlash image to flash
Debug: 906 941 gdb_server.c:2019 gdb_input_inner(): received packet: 'Pf=d0010008'
Debug: 907 941 gdb_server.c:1111 gdb_set_register_packet(): -
Debug: 908 941 gdb_server.c:2019 gdb_input_inner(): received packet: 'P19=20000000'
Debug: 909 941 gdb_server.c:1111 gdb_set_register_packet(): -
Debug: 910 941 gdb_server.c:2019 gdb_input_inner(): received packet: 'qTStatus'
Debug: 911 941 gdb_server.c:2019 gdb_input_inner(): received packet: 'qTStatus'
Debug: 912 942 gdb_server.c:2019 gdb_input_inner(): received packet: 'qTStatus'
Debug: 913 942 gdb_server.c:2019 gdb_input_inner(): received packet: 'qTStatus'
Debug: 914 948 gdb_server.c:2019 gdb_input_inner(): received packet: 'qfThreadInfo'
Debug: 915 948 gdb_server.c:2019 gdb_input_inner(): received packet: 'qL1200000000000000000'
Debug: 916 993 gdb_server.c:2019 gdb_input_inner(): received packet: 'm80001d0,4'
Debug: 917 993 gdb_server.c:1192 gdb_read_memory_packet(): addr: 0x080001d0, len: 0x00000004
Debug: 918 993 target.c:1764 target_read_buffer(): reading buffer of 4 byte at 0x080001d0
Debug: 919 993 hla_target.c:697 adapter_read_memory(): adapter_read_memory 0x080001d0 4 1
Debug: 920 994 gdb_server.c:2019 gdb_input_inner(): received packet: 'm80008c2,2'
Debug: 921 994 gdb_server.c:1192 gdb_read_memory_packet(): addr: 0x080008c2, len: 0x00000002
Debug: 922 994 target.c:1764 target_read_buffer(): reading buffer of 2 byte at 0x080008c2
Debug: 923 994 hla_target.c:697 adapter_read_memory(): adapter_read_memory 0x080008c2 2 1
Debug: 924 996 gdb_server.c:2019 gdb_input_inner(): received packet: 'm80008c4,2'
Debug: 925 996 gdb_server.c:1192 gdb_read_memory_packet(): addr: 0x080008c4, len: 0x00000002
Debug: 926 996 target.c:1764 target_read_buffer(): reading buffer of 2 byte at 0x080008c4
Debug: 927 996 hla_target.c:697 adapter_read_memory(): adapter_read_memory 0x080008c4 2 1
Debug: 928 1003 gdb_server.c:2019 gdb_input_inner(): received packet: 'm80008c0,2'
Debug: 929 1003 gdb_server.c:1192 gdb_read_memory_packet(): addr: 0x080008c0, len: 0x00000002
Debug: 930 1003 target.c:1764 target_read_buffer(): reading buffer of 2 byte at 0x080008c0
Debug: 931 1003 hla_target.c:697 adapter_read_memory(): adapter_read_memory 0x080008c0 2 1
Debug: 932 1005 gdb_server.c:2019 gdb_input_inner(): received packet: 'qTStatus'
Debug: 933 1005 gdb_server.c:2019 gdb_input_inner(): received packet: 'm80001d4,2'
Debug: 934 1005 gdb_server.c:1192 gdb_read_memory_packet(): addr: 0x080001d4, len: 0x00000002
Debug: 935 1005 target.c:1764 target_read_buffer(): reading buffer of 2 byte at 0x080001d4
Debug: 936 1005 hla_target.c:697 adapter_read_memory(): adapter_read_memory 0x080001d4 2 1
Debug: 937 1006 gdb_server.c:2019 gdb_input_inner(): received packet: 'm80001d6,2'
Debug: 938 1007 gdb_server.c:1192 gdb_read_memory_packet(): addr: 0x080001d6, len: 0x00000002
Debug: 939 1007 target.c:1764 target_read_buffer(): reading buffer of 2 byte at 0x080001d6
Debug: 940 1007 hla_target.c:697 adapter_read_memory(): adapter_read_memory 0x080001d6 2 1
Debug: 941 1008 gdb_server.c:2019 gdb_input_inner(): received packet: 'm80001d0,2'
Debug: 942 1008 gdb_server.c:1192 gdb_read_memory_packet(): addr: 0x080001d0, len: 0x00000002
Debug: 943 1008 target.c:1764 target_read_buffer(): reading buffer of 2 byte at 0x080001d0
Debug: 944 1008 hla_target.c:697 adapter_read_memory(): adapter_read_memory 0x080001d0 2 1
Debug: 945 1009 gdb_server.c:2019 gdb_input_inner(): received packet: 'qTStatus'
Debug: 946 1009 gdb_server.c:2019 gdb_input_inner(): received packet: 'm80008c2,2'
Debug: 947 1009 gdb_server.c:1192 gdb_read_memory_packet(): addr: 0x080008c2, len: 0x00000002
Debug: 948 1009 target.c:1764 target_read_buffer(): reading buffer of 2 byte at 0x080008c2
Debug: 949 1009 hla_target.c:697 adapter_read_memory(): adapter_read_memory 0x080008c2 2 1
Debug: 950 1011 gdb_server.c:2019 gdb_input_inner(): received packet: 'm80008c4,2'
Debug: 951 1011 gdb_server.c:1192 gdb_read_memory_packet(): addr: 0x080008c4, len: 0x00000002
Debug: 952 1011 target.c:1764 target_read_buffer(): reading buffer of 2 byte at 0x080008c4
Debug: 953 1011 hla_target.c:697 adapter_read_memory(): adapter_read_memory 0x080008c4 2 1
Debug: 954 1012 gdb_server.c:2019 gdb_input_inner(): received packet: 'm8000902,2'
Debug: 955 1012 gdb_server.c:1192 gdb_read_memory_packet(): addr: 0x08000902, len: 0x00000002
Debug: 956 1012 target.c:1764 target_read_buffer(): reading buffer of 2 byte at 0x08000902
Debug: 957 1012 hla_target.c:697 adapter_read_memory(): adapter_read_memory 0x08000902 2 1
Debug: 958 1014 gdb_server.c:2019 gdb_input_inner(): received packet: 'qTStatus'
Debug: 959 1032 gdb_server.c:2019 gdb_input_inner(): received packet: 'm80008c2,2'
Debug: 960 1032 gdb_server.c:1192 gdb_read_memory_packet(): addr: 0x080008c2, len: 0x00000002
Debug: 961 1032 target.c:1764 target_read_buffer(): reading buffer of 2 byte at 0x080008c2
Debug: 962 1032 hla_target.c:697 adapter_read_memory(): adapter_read_memory 0x080008c2 2 1
Debug: 963 1033 gdb_server.c:2019 gdb_input_inner(): received packet: 'm80008c4,2'
Debug: 964 1033 gdb_server.c:1192 gdb_read_memory_packet(): addr: 0x080008c4, len: 0x00000002
Debug: 965 1033 target.c:1764 target_read_buffer(): reading buffer of 2 byte at 0x080008c4
Debug: 966 1033 hla_target.c:697 adapter_read_memory(): adapter_read_memory 0x080008c4 2 1
Debug: 967 1034 gdb_server.c:2019 gdb_input_inner(): received packet: 'm80008c2,2'
Debug: 968 1034 gdb_server.c:1192 gdb_read_memory_packet(): addr: 0x080008c2, len: 0x00000002
Debug: 969 1034 target.c:1764 target_read_buffer(): reading buffer of 2 byte at 0x080008c2
Debug: 970 1034 hla_target.c:697 adapter_read_memory(): adapter_read_memory 0x080008c2 2 1
Debug: 971 1035 gdb_server.c:2019 gdb_input_inner(): received packet: 'm80008c4,2'
Debug: 972 1035 gdb_server.c:1192 gdb_read_memory_packet(): addr: 0x080008c4, len: 0x00000002
Debug: 973 1035 target.c:1764 target_read_buffer(): reading buffer of 2 byte at 0x080008c4
Debug: 974 1035 hla_target.c:697 adapter_read_memory(): adapter_read_memory 0x080008c4 2 1
Debug: 975 1038 gdb_server.c:2019 gdb_input_inner(): received packet: 'm80008c0,2'
Debug: 976 1038 gdb_server.c:1192 gdb_read_memory_packet(): addr: 0x080008c0, len: 0x00000002
Debug: 977 1038 target.c:1764 target_read_buffer(): reading buffer of 2 byte at 0x080008c0
Debug: 978 1038 hla_target.c:697 adapter_read_memory(): adapter_read_memory 0x080008c0 2 1
Debug: 979 1041 gdb_server.c:2019 gdb_input_inner(): received packet: 'qTStatus'
Debug: 980 1047 gdb_server.c:2019 gdb_input_inner(): received packet: 'qTStatus'
Debug: 981 1048 gdb_server.c:2019 gdb_input_inner(): received packet: 'Z1,80001d0,2'
Debug: 982 1048 gdb_server.c:1374 gdb_breakpoint_watchpoint_packet(): -
Debug: 983 1048 target.c:1978 target_write_u32(): address: 0xe0002008, value: 0x480001d1
Debug: 984 1048 hla_target.c:745 adapter_write_memory(): adapter_write_memory 0xe0002008 4 1
Debug: 985 1049 cortex_m.c:1139 cortex_m3_set_breakpoint(): fpc_num 0 fpcr_value 0x480001d1
Debug: 986 1049 cortex_m.c:1172 cortex_m3_set_breakpoint(): BPID: 0, Type: 0, Address: 0x080001d0 Length: 2 (set=1)
Debug: 987 1049 breakpoints.c:106 breakpoint_add_internal(): added hardware breakpoint at 0x080001d0 of length 0x00000002, (BPID: 0)
Debug: 988 1049 gdb_server.c:2019 gdb_input_inner(): received packet: 'Z1,80008c0,2'
Debug: 989 1049 gdb_server.c:1374 gdb_breakpoint_watchpoint_packet(): -
Debug: 990 1049 target.c:1978 target_write_u32(): address: 0xe000200c, value: 0x480008c1
Debug: 991 1049 hla_target.c:745 adapter_write_memory(): adapter_write_memory 0xe000200c 4 1
Debug: 992 1050 cortex_m.c:1139 cortex_m3_set_breakpoint(): fpc_num 1 fpcr_value 0x480008c1
Debug: 993 1050 cortex_m.c:1172 cortex_m3_set_breakpoint(): BPID: 1, Type: 0, Address: 0x080008c0 Length: 2 (set=2)
Debug: 994 1050 breakpoints.c:106 breakpoint_add_internal(): added hardware breakpoint at 0x080008c0 of length 0x00000002, (BPID: 1)
Debug: 995 1050 gdb_server.c:2019 gdb_input_inner(): received packet: 'Z1,8000902,2'
Debug: 996 1050 gdb_server.c:1374 gdb_breakpoint_watchpoint_packet(): -
Debug: 997 1050 target.c:1978 target_write_u32(): address: 0xe0002010, value: 0x88000901
Debug: 998 1050 hla_target.c:745 adapter_write_memory(): adapter_write_memory 0xe0002010 4 1
Debug: 999 1051 cortex_m.c:1139 cortex_m3_set_breakpoint(): fpc_num 2 fpcr_value 0x88000901
Debug: 1000 1051 cortex_m.c:1172 cortex_m3_set_breakpoint(): BPID: 2, Type: 0, Address: 0x08000902 Length: 2 (set=3)
Debug: 1001 1051 breakpoints.c:106 breakpoint_add_internal(): added hardware breakpoint at 0x08000902 of length 0x00000002, (BPID: 2)
Debug: 1002 1051 gdb_server.c:2019 gdb_input_inner(): received packet: 'vCont?'
Debug: 1003 1051 gdb_server.c:2019 gdb_input_inner(): received packet: 'Hc0'
Debug: 1004 1051 gdb_server.c:2019 gdb_input_inner(): received packet: 'c'
Debug: 1005 1051 target.c:1294 target_call_event_callbacks(): target event 5 (gdb-start)
Debug: 1006 1051 gdb_server.c:1342 gdb_step_continue_packet(): -
Debug: 1007 1051 gdb_server.c:1351 gdb_step_continue_packet(): continue
Debug: 1008 1051 target.c:1294 target_call_event_callbacks(): target event 3 (resume-start)
Debug: 1009 1051 hla_target.c:551 adapter_resume(): adapter_resume 1 0x00000000 0 0
Debug: 1010 1051 target.c:1615 target_free_all_working_areas_restore(): freeing all working areas
Debug: 1011 1051 target.c:1381 print_wa_layout():    0x20000000-0x20001fff (8192 bytes)
Debug: 1012 1051 hla_target.c:697 adapter_read_memory(): adapter_read_memory 0x080001d0 2 1
Debug: 1013 1055 target.c:1936 target_read_u16(): address: 0x080001d0, value: 0xb500
Debug: 1014 1055 target.c:1978 target_write_u32(): address: 0xe000edfc, value: 0x01000000
Debug: 1015 1055 hla_target.c:745 adapter_write_memory(): adapter_write_memory 0xe000edfc 4 1
Debug: 1016 1056 armv7m.c:140 armv7m_restore_context():  
Debug: 1017 1056 hla_target.c:153 adapter_store_core_reg_u32(): adapter_store_core_reg_u32
Debug: 1018 1057 hla_target.c:183 adapter_store_core_reg_u32(): write core reg 16 value 0x1000000
Debug: 1019 1057 armv7m.c:249 armv7m_write_core_reg(): write core reg 16 value 0x1000000
Debug: 1020 1057 hla_target.c:153 adapter_store_core_reg_u32(): adapter_store_core_reg_u32
Debug: 1021 1058 hla_target.c:183 adapter_store_core_reg_u32(): write core reg 15 value 0x80001d1
Debug: 1022 1058 armv7m.c:249 armv7m_write_core_reg(): write core reg 15 value 0x80001d1
Debug: 1023 1058 hla_target.c:153 adapter_store_core_reg_u32(): adapter_store_core_reg_u32
Debug: 1024 1059 hla_target.c:183 adapter_store_core_reg_u32(): write core reg 7 value 0x8001af8
Debug: 1025 1059 armv7m.c:249 armv7m_write_core_reg(): write core reg 7 value 0x8001af8
Debug: 1026 1059 hla_target.c:153 adapter_store_core_reg_u32(): adapter_store_core_reg_u32
Debug: 1027 1060 hla_target.c:183 adapter_store_core_reg_u32(): write core reg 6 value 0x40011000
Debug: 1028 1060 armv7m.c:249 armv7m_write_core_reg(): write core reg 6 value 0x40011000
Debug: 1029 1060 hla_target.c:153 adapter_store_core_reg_u32(): adapter_store_core_reg_u32
Debug: 1030 1061 hla_target.c:183 adapter_store_core_reg_u32(): write core reg 5 value 0x200
Debug: 1031 1061 armv7m.c:249 armv7m_write_core_reg(): write core reg 5 value 0x200
Debug: 1032 1061 hla_target.c:153 adapter_store_core_reg_u32(): adapter_store_core_reg_u32
Debug: 1033 1061 hla_target.c:183 adapter_store_core_reg_u32(): write core reg 4 value 0x27
Debug: 1034 1061 armv7m.c:249 armv7m_write_core_reg(): write core reg 4 value 0x27
Debug: 1035 1061 hla_target.c:153 adapter_store_core_reg_u32(): adapter_store_core_reg_u32
Debug: 1036 1062 hla_target.c:183 adapter_store_core_reg_u32(): write core reg 3 value 0x29a
Debug: 1037 1062 armv7m.c:249 armv7m_write_core_reg(): write core reg 3 value 0x29a
Debug: 1038 1062 hla_target.c:153 adapter_store_core_reg_u32(): adapter_store_core_reg_u32
Debug: 1039 1063 hla_target.c:183 adapter_store_core_reg_u32(): write core reg 2 value 0x20000110
Debug: 1040 1063 armv7m.c:249 armv7m_write_core_reg(): write core reg 2 value 0x20000110
Debug: 1041 1063 hla_target.c:153 adapter_store_core_reg_u32(): adapter_store_core_reg_u32
Debug: 1042 1064 hla_target.c:183 adapter_store_core_reg_u32(): write core reg 1 value 0x200
Debug: 1043 1064 armv7m.c:249 armv7m_write_core_reg(): write core reg 1 value 0x200
Debug: 1044 1064 hla_target.c:153 adapter_store_core_reg_u32(): adapter_store_core_reg_u32
Debug: 1045 1065 hla_target.c:183 adapter_store_core_reg_u32(): write core reg 0 value 0x29a
Debug: 1046 1065 armv7m.c:249 armv7m_write_core_reg(): write core reg 0 value 0x29a
Debug: 1047 1065 target.c:1294 target_call_event_callbacks(): target event 2 (resumed)
Debug: 1048 1065 target.c:1294 target_call_event_callbacks(): target event 4 (resume-end)
Debug: 1049 1167 hla_target.c:55 adapter_load_core_reg_u32(): adapter_load_core_reg_u32
Debug: 1050 1167 hla_target.c:70 adapter_load_core_reg_u32(): load from core reg 0  value 0x29a
Debug: 1051 1167 hla_target.c:55 adapter_load_core_reg_u32(): adapter_load_core_reg_u32
Debug: 1052 1168 hla_target.c:70 adapter_load_core_reg_u32(): load from core reg 1  value 0x200
Debug: 1053 1168 hla_target.c:55 adapter_load_core_reg_u32(): adapter_load_core_reg_u32
Debug: 1054 1168 hla_target.c:70 adapter_load_core_reg_u32(): load from core reg 2  value 0x20000110
Debug: 1055 1168 hla_target.c:55 adapter_load_core_reg_u32(): adapter_load_core_reg_u32
Debug: 1056 1170 hla_target.c:70 adapter_load_core_reg_u32(): load from core reg 3  value 0x29a
Debug: 1057 1170 hla_target.c:55 adapter_load_core_reg_u32(): adapter_load_core_reg_u32
Debug: 1058 1170 hla_target.c:70 adapter_load_core_reg_u32(): load from core reg 4  value 0x27
Debug: 1059 1170 hla_target.c:55 adapter_load_core_reg_u32(): adapter_load_core_reg_u32
Debug: 1060 1171 hla_target.c:70 adapter_load_core_reg_u32(): load from core reg 5  value 0x200
Debug: 1061 1171 hla_target.c:55 adapter_load_core_reg_u32(): adapter_load_core_reg_u32
Debug: 1062 1171 hla_target.c:70 adapter_load_core_reg_u32(): load from core reg 6  value 0x40011000
Debug: 1063 1171 hla_target.c:55 adapter_load_core_reg_u32(): adapter_load_core_reg_u32
Debug: 1064 1172 hla_target.c:70 adapter_load_core_reg_u32(): load from core reg 7  value 0x8001af8
Debug: 1065 1172 hla_target.c:55 adapter_load_core_reg_u32(): adapter_load_core_reg_u32
Debug: 1066 1173 hla_target.c:70 adapter_load_core_reg_u32(): load from core reg 8  value 0xefe69a22
Debug: 1067 1173 hla_target.c:55 adapter_load_core_reg_u32(): adapter_load_core_reg_u32
Debug: 1068 1173 hla_target.c:70 adapter_load_core_reg_u32(): load from core reg 9  value 0x7101362d
Debug: 1069 1173 hla_target.c:55 adapter_load_core_reg_u32(): adapter_load_core_reg_u32
Debug: 1070 1174 hla_target.c:70 adapter_load_core_reg_u32(): load from core reg 10  value 0x46e0bef4
Debug: 1071 1174 hla_target.c:55 adapter_load_core_reg_u32(): adapter_load_core_reg_u32
Debug: 1072 1175 hla_target.c:70 adapter_load_core_reg_u32(): load from core reg 11  value 0x5ff2ba7f
Debug: 1073 1175 hla_target.c:55 adapter_load_core_reg_u32(): adapter_load_core_reg_u32
Debug: 1074 1175 hla_target.c:70 adapter_load_core_reg_u32(): load from core reg 12  value 0xf
Debug: 1075 1175 hla_target.c:55 adapter_load_core_reg_u32(): adapter_load_core_reg_u32
Debug: 1076 1176 hla_target.c:70 adapter_load_core_reg_u32(): load from core reg 13  value 0x20002000
Debug: 1077 1176 hla_target.c:55 adapter_load_core_reg_u32(): adapter_load_core_reg_u32
Debug: 1078 1177 hla_target.c:70 adapter_load_core_reg_u32(): load from core reg 14  value 0xffffffff
Debug: 1079 1177 hla_target.c:55 adapter_load_core_reg_u32(): adapter_load_core_reg_u32
Debug: 1080 1177 hla_target.c:70 adapter_load_core_reg_u32(): load from core reg 15  value 0x80001d0
Debug: 1081 1177 hla_target.c:55 adapter_load_core_reg_u32(): adapter_load_core_reg_u32
Debug: 1082 1178 hla_target.c:70 adapter_load_core_reg_u32(): load from core reg 16  value 0x1000000
Debug: 1083 1178 hla_target.c:55 adapter_load_core_reg_u32(): adapter_load_core_reg_u32
Debug: 1084 1179 hla_target.c:70 adapter_load_core_reg_u32(): load from core reg 17  value 0x20002000
Debug: 1085 1179 hla_target.c:55 adapter_load_core_reg_u32(): adapter_load_core_reg_u32
Debug: 1086 1179 hla_target.c:70 adapter_load_core_reg_u32(): load from core reg 18  value 0xfb748eec
Debug: 1087 1179 hla_target.c:55 adapter_load_core_reg_u32(): adapter_load_core_reg_u32
Debug: 1088 1180 hla_target.c:135 adapter_load_core_reg_u32(): load from special reg 19 value 0x0
Debug: 1089 1180 hla_target.c:55 adapter_load_core_reg_u32(): adapter_load_core_reg_u32
Debug: 1090 1181 hla_target.c:135 adapter_load_core_reg_u32(): load from special reg 20 value 0x0
Debug: 1091 1181 hla_target.c:55 adapter_load_core_reg_u32(): adapter_load_core_reg_u32
Debug: 1092 1181 hla_target.c:135 adapter_load_core_reg_u32(): load from special reg 21 value 0x0
Debug: 1093 1181 hla_target.c:55 adapter_load_core_reg_u32(): adapter_load_core_reg_u32
Debug: 1094 1182 hla_target.c:135 adapter_load_core_reg_u32(): load from special reg 22 value 0x0
Debug: 1095 1182 hla_target.c:374 adapter_debug_entry(): entered debug state in core mode: Thread at PC 0x080001d0, target->state: halted
Debug: 1096 1182 hla_target.c:697 adapter_read_memory(): adapter_read_memory 0x080001d0 2 1
Debug: 1097 1184 target.c:1936 target_read_u16(): address: 0x080001d0, value: 0xb500
Debug: 1098 1184 target.c:1294 target_call_event_callbacks(): target event 0 (gdb-halt)
Debug: 1099 1184 target.c:1294 target_call_event_callbacks(): target event 1 (halted)
Debug: 1100 1184 target.c:1294 target_call_event_callbacks(): target event 6 (gdb-end)
Debug: 1101 1184 hla_target.c:412 adapter_poll(): halted: PC: 0x080001d0
Debug: 1102 1184 gdb_server.c:2019 gdb_input_inner(): received packet: 'g'
Debug: 1103 1185 gdb_server.c:2019 gdb_input_inner(): received packet: 'z1,80001d0,2'
Debug: 1104 1185 gdb_server.c:1374 gdb_breakpoint_watchpoint_packet(): -
Debug: 1105 1185 cortex_m.c:1193 cortex_m3_unset_breakpoint(): BPID: 0, Type: 0, Address: 0x080001d0 Length: 2 (set=1)
Debug: 1106 1185 target.c:1978 target_write_u32(): address: 0xe0002008, value: 0x00000000
Debug: 1107 1185 hla_target.c:745 adapter_write_memory(): adapter_write_memory 0xe0002008 4 1
Debug: 1108 1187 breakpoints.c:309 breakpoint_free(): free BPID: 0 --> 0
Debug: 1109 1187 gdb_server.c:2019 gdb_input_inner(): received packet: 'z1,80008c0,2'
Debug: 1110 1187 gdb_server.c:1374 gdb_breakpoint_watchpoint_packet(): -
Debug: 1111 1187 cortex_m.c:1193 cortex_m3_unset_breakpoint(): BPID: 1, Type: 0, Address: 0x080008c0 Length: 2 (set=2)
Debug: 1112 1187 target.c:1978 target_write_u32(): address: 0xe000200c, value: 0x00000000
Debug: 1113 1187 hla_target.c:745 adapter_write_memory(): adapter_write_memory 0xe000200c 4 1
Debug: 1114 1190 breakpoints.c:309 breakpoint_free(): free BPID: 1 --> 0
Debug: 1115 1190 gdb_server.c:2019 gdb_input_inner(): received packet: 'z1,8000902,2'
Debug: 1116 1190 gdb_server.c:1374 gdb_breakpoint_watchpoint_packet(): -
Debug: 1117 1190 cortex_m.c:1193 cortex_m3_unset_breakpoint(): BPID: 2, Type: 0, Address: 0x08000902 Length: 2 (set=3)
Debug: 1118 1190 target.c:1978 target_write_u32(): address: 0xe0002010, value: 0x00000000
Debug: 1119 1190 hla_target.c:745 adapter_write_memory(): adapter_write_memory 0xe0002010 4 1
Debug: 1120 1191 breakpoints.c:309 breakpoint_free(): free BPID: 2 --> 0
Debug: 1121 1191 gdb_server.c:2019 gdb_input_inner(): received packet: 'm80001d0,4'
Debug: 1122 1191 gdb_server.c:1192 gdb_read_memory_packet(): addr: 0x080001d0, len: 0x00000004
Debug: 1123 1191 target.c:1764 target_read_buffer(): reading buffer of 4 byte at 0x080001d0
Debug: 1124 1191 hla_target.c:697 adapter_read_memory(): adapter_read_memory 0x080001d0 4 1
Debug: 1125 1247 gdb_server.c:2019 gdb_input_inner(): received packet: 'qL1200000000000000000'
Debug: 1126 1917 gdb_server.c:2019 gdb_input_inner(): received packet: 'qL1200000000000000000'
Debug: 1127 1919 gdb_server.c:2019 gdb_input_inner(): received packet: 'qL1200000000000000000'
Debug: 1128 3791 gdb_server.c:2019 gdb_input_inner(): received packet: 'Hc0'
Debug: 1129 3791 gdb_server.c:2019 gdb_input_inner(): received packet: 's'
Debug: 1130 3791 target.c:1294 target_call_event_callbacks(): target event 5 (gdb-start)
Debug: 1131 3791 gdb_server.c:1342 gdb_step_continue_packet(): -
Debug: 1132 3791 gdb_server.c:1355 gdb_step_continue_packet(): step
Debug: 1133 3791 hla_target.c:635 adapter_step(): adapter_step
Debug: 1134 3791 hla_target.c:697 adapter_read_memory(): adapter_read_memory 0x080001d0 2 1
Debug: 1135 3797 target.c:1936 target_read_u16(): address: 0x080001d0, value: 0xb500
Debug: 1136 3797 armv7m.c:140 armv7m_restore_context():  
Debug: 1137 3797 target.c:1294 target_call_event_callbacks(): target event 2 (resumed)
Debug: 1138 3799 hla_target.c:55 adapter_load_core_reg_u32(): adapter_load_core_reg_u32
Debug: 1139 3799 hla_target.c:70 adapter_load_core_reg_u32(): load from core reg 0  value 0x29a
Debug: 1140 3799 hla_target.c:55 adapter_load_core_reg_u32(): adapter_load_core_reg_u32
Debug: 1141 3800 hla_target.c:70 adapter_load_core_reg_u32(): load from core reg 1  value 0x200
Debug: 1142 3800 hla_target.c:55 adapter_load_core_reg_u32(): adapter_load_core_reg_u32
Debug: 1143 3801 hla_target.c:70 adapter_load_core_reg_u32(): load from core reg 2  value 0x20000110
Debug: 1144 3801 hla_target.c:55 adapter_load_core_reg_u32(): adapter_load_core_reg_u32
Debug: 1145 3802 hla_target.c:70 adapter_load_core_reg_u32(): load from core reg 3  value 0x29a
Debug: 1146 3802 hla_target.c:55 adapter_load_core_reg_u32(): adapter_load_core_reg_u32
Debug: 1147 3802 hla_target.c:70 adapter_load_core_reg_u32(): load from core reg 4  value 0x27
Debug: 1148 3802 hla_target.c:55 adapter_load_core_reg_u32(): adapter_load_core_reg_u32
Debug: 1149 3803 hla_target.c:70 adapter_load_core_reg_u32(): load from core reg 5  value 0x200
Debug: 1150 3803 hla_target.c:55 adapter_load_core_reg_u32(): adapter_load_core_reg_u32
Debug: 1151 3804 hla_target.c:70 adapter_load_core_reg_u32(): load from core reg 6  value 0x40011000
Debug: 1152 3804 hla_target.c:55 adapter_load_core_reg_u32(): adapter_load_core_reg_u32
Debug: 1153 3804 hla_target.c:70 adapter_load_core_reg_u32(): load from core reg 7  value 0x8001af8
Debug: 1154 3804 hla_target.c:55 adapter_load_core_reg_u32(): adapter_load_core_reg_u32
Debug: 1155 3805 hla_target.c:70 adapter_load_core_reg_u32(): load from core reg 8  value 0xefe69a22
Debug: 1156 3805 hla_target.c:55 adapter_load_core_reg_u32(): adapter_load_core_reg_u32
Debug: 1157 3806 hla_target.c:70 adapter_load_core_reg_u32(): load from core reg 9  value 0x7101362d
Debug: 1158 3806 hla_target.c:55 adapter_load_core_reg_u32(): adapter_load_core_reg_u32
Debug: 1159 3807 hla_target.c:70 adapter_load_core_reg_u32(): load from core reg 10  value 0x46e0bef4
Debug: 1160 3807 hla_target.c:55 adapter_load_core_reg_u32(): adapter_load_core_reg_u32
Debug: 1161 3807 hla_target.c:70 adapter_load_core_reg_u32(): load from core reg 11  value 0x5ff2ba7f
Debug: 1162 3807 hla_target.c:55 adapter_load_core_reg_u32(): adapter_load_core_reg_u32
Debug: 1163 3808 hla_target.c:70 adapter_load_core_reg_u32(): load from core reg 12  value 0xf
Debug: 1164 3808 hla_target.c:55 adapter_load_core_reg_u32(): adapter_load_core_reg_u32
Debug: 1165 3808 hla_target.c:70 adapter_load_core_reg_u32(): load from core reg 13  value 0x20001ffc
Debug: 1166 3808 hla_target.c:55 adapter_load_core_reg_u32(): adapter_load_core_reg_u32
Debug: 1167 3809 hla_target.c:70 adapter_load_core_reg_u32(): load from core reg 14  value 0xffffffff
Debug: 1168 3809 hla_target.c:55 adapter_load_core_reg_u32(): adapter_load_core_reg_u32
Debug: 1169 3810 hla_target.c:70 adapter_load_core_reg_u32(): load from core reg 15  value 0x80001d2
Debug: 1170 3810 hla_target.c:55 adapter_load_core_reg_u32(): adapter_load_core_reg_u32
Debug: 1171 3810 hla_target.c:70 adapter_load_core_reg_u32(): load from core reg 16  value 0x1000000
Debug: 1172 3810 hla_target.c:55 adapter_load_core_reg_u32(): adapter_load_core_reg_u32
Debug: 1173 3811 hla_target.c:70 adapter_load_core_reg_u32(): load from core reg 17  value 0x20001ffc
Debug: 1174 3811 hla_target.c:55 adapter_load_core_reg_u32(): adapter_load_core_reg_u32
Debug: 1175 3812 hla_target.c:70 adapter_load_core_reg_u32(): load from core reg 18  value 0xfb748eec
Debug: 1176 3812 hla_target.c:55 adapter_load_core_reg_u32(): adapter_load_core_reg_u32
Debug: 1177 3812 hla_target.c:135 adapter_load_core_reg_u32(): load from special reg 19 value 0x0
Debug: 1178 3812 hla_target.c:55 adapter_load_core_reg_u32(): adapter_load_core_reg_u32
Debug: 1179 3813 hla_target.c:135 adapter_load_core_reg_u32(): load from special reg 20 value 0x0
Debug: 1180 3813 hla_target.c:55 adapter_load_core_reg_u32(): adapter_load_core_reg_u32
Debug: 1181 3814 hla_target.c:135 adapter_load_core_reg_u32(): load from special reg 21 value 0x0
Debug: 1182 3814 hla_target.c:55 adapter_load_core_reg_u32(): adapter_load_core_reg_u32
Debug: 1183 3815 hla_target.c:135 adapter_load_core_reg_u32(): load from special reg 22 value 0x0
Debug: 1184 3816 hla_target.c:374 adapter_debug_entry(): entered debug state in core mode: Thread at PC 0x080001d2, target->state: halted
Debug: 1185 3816 target.c:1294 target_call_event_callbacks(): target event 0 (gdb-halt)
Debug: 1186 3816 target.c:1294 target_call_event_callbacks(): target event 1 (halted)
Debug: 1187 3816 target.c:1294 target_call_event_callbacks(): target event 6 (gdb-end)
Info : 1188 3816 hla_target.c:679 adapter_step(): halted: PC: 0x080001d2
Debug: 1189 3816 gdb_server.c:2019 gdb_input_inner(): received packet: 'g'
Debug: 1190 3817 gdb_server.c:2019 gdb_input_inner(): received packet: 'qTStatus'
Debug: 1191 3817 gdb_server.c:2019 gdb_input_inner(): received packet: 'Z1,80001d0,2'
Debug: 1192 3817 gdb_server.c:1374 gdb_breakpoint_watchpoint_packet(): -
Debug: 1193 3817 target.c:1978 target_write_u32(): address: 0xe0002008, value: 0x480001d1
Debug: 1194 3817 hla_target.c:745 adapter_write_memory(): adapter_write_memory 0xe0002008 4 1
Debug: 1195 3818 cortex_m.c:1139 cortex_m3_set_breakpoint(): fpc_num 0 fpcr_value 0x480001d1
Debug: 1196 3818 cortex_m.c:1172 cortex_m3_set_breakpoint(): BPID: 3, Type: 0, Address: 0x080001d0 Length: 2 (set=1)
Debug: 1197 3818 breakpoints.c:106 breakpoint_add_internal(): added hardware breakpoint at 0x080001d0 of length 0x00000002, (BPID: 3)
Debug: 1198 3818 gdb_server.c:2019 gdb_input_inner(): received packet: 'Z1,80008c0,2'
Debug: 1199 3818 gdb_server.c:1374 gdb_breakpoint_watchpoint_packet(): -
Debug: 1200 3818 target.c:1978 target_write_u32(): address: 0xe000200c, value: 0x480008c1
Debug: 1201 3818 hla_target.c:745 adapter_write_memory(): adapter_write_memory 0xe000200c 4 1
Debug: 1202 3819 cortex_m.c:1139 cortex_m3_set_breakpoint(): fpc_num 1 fpcr_value 0x480008c1
Debug: 1203 3819 cortex_m.c:1172 cortex_m3_set_breakpoint(): BPID: 4, Type: 0, Address: 0x080008c0 Length: 2 (set=2)
Debug: 1204 3819 breakpoints.c:106 breakpoint_add_internal(): added hardware breakpoint at 0x080008c0 of length 0x00000002, (BPID: 4)
Debug: 1205 3819 gdb_server.c:2019 gdb_input_inner(): received packet: 'Z1,8000902,2'
Debug: 1206 3819 gdb_server.c:1374 gdb_breakpoint_watchpoint_packet(): -
Debug: 1207 3819 target.c:1978 target_write_u32(): address: 0xe0002010, value: 0x88000901
Debug: 1208 3819 hla_target.c:745 adapter_write_memory(): adapter_write_memory 0xe0002010 4 1
Debug: 1209 3820 cortex_m.c:1139 cortex_m3_set_breakpoint(): fpc_num 2 fpcr_value 0x88000901
Debug: 1210 3820 cortex_m.c:1172 cortex_m3_set_breakpoint(): BPID: 5, Type: 0, Address: 0x08000902 Length: 2 (set=3)
Debug: 1211 3820 breakpoints.c:106 breakpoint_add_internal(): added hardware breakpoint at 0x08000902 of length 0x00000002, (BPID: 5)
Debug: 1212 3820 gdb_server.c:2019 gdb_input_inner(): received packet: 'Hc0'
Debug: 1213 3820 gdb_server.c:2019 gdb_input_inner(): received packet: 'c'
Debug: 1214 3820 target.c:1294 target_call_event_callbacks(): target event 5 (gdb-start)
Debug: 1215 3820 gdb_server.c:1342 gdb_step_continue_packet(): -
Debug: 1216 3820 gdb_server.c:1351 gdb_step_continue_packet(): continue
Debug: 1217 3820 target.c:1294 target_call_event_callbacks(): target event 3 (resume-start)
Debug: 1218 3820 hla_target.c:551 adapter_resume(): adapter_resume 1 0x00000000 0 0
Debug: 1219 3820 target.c:1615 target_free_all_working_areas_restore(): freeing all working areas
Debug: 1220 3820 target.c:1381 print_wa_layout():    0x20000000-0x20001fff (8192 bytes)
Debug: 1221 3820 target.c:1978 target_write_u32(): address: 0xe000edfc, value: 0x01000000
Debug: 1222 3820 hla_target.c:745 adapter_write_memory(): adapter_write_memory 0xe000edfc 4 1
Debug: 1223 3822 armv7m.c:140 armv7m_restore_context():  
Debug: 1224 3823 target.c:1294 target_call_event_callbacks(): target event 2 (resumed)
Debug: 1225 3823 target.c:1294 target_call_event_callbacks(): target event 4 (resume-end)
Debug: 1226 3926 hla_target.c:55 adapter_load_core_reg_u32(): adapter_load_core_reg_u32
Debug: 1227 3926 hla_target.c:70 adapter_load_core_reg_u32(): load from core reg 0  value 0x1
Debug: 1228 3926 hla_target.c:55 adapter_load_core_reg_u32(): adapter_load_core_reg_u32
Debug: 1229 3927 hla_target.c:70 adapter_load_core_reg_u32(): load from core reg 1  value 0x20000004
Debug: 1230 3927 hla_target.c:55 adapter_load_core_reg_u32(): adapter_load_core_reg_u32
Debug: 1231 3928 hla_target.c:70 adapter_load_core_reg_u32(): load from core reg 2  value 0x8000000
Debug: 1232 3928 hla_target.c:55 adapter_load_core_reg_u32(): adapter_load_core_reg_u32
Debug: 1233 3929 hla_target.c:70 adapter_load_core_reg_u32(): load from core reg 3  value 0x800030c
Debug: 1234 3929 hla_target.c:55 adapter_load_core_reg_u32(): adapter_load_core_reg_u32
Debug: 1235 3929 hla_target.c:70 adapter_load_core_reg_u32(): load from core reg 4  value 0x0
Debug: 1236 3929 hla_target.c:55 adapter_load_core_reg_u32(): adapter_load_core_reg_u32
Debug: 1237 3930 hla_target.c:70 adapter_load_core_reg_u32(): load from core reg 5  value 0x800030c
Debug: 1238 3930 hla_target.c:55 adapter_load_core_reg_u32(): adapter_load_core_reg_u32
Debug: 1239 3931 hla_target.c:70 adapter_load_core_reg_u32(): load from core reg 6  value 0x0
Debug: 1240 3931 hla_target.c:55 adapter_load_core_reg_u32(): adapter_load_core_reg_u32
Debug: 1241 3931 hla_target.c:70 adapter_load_core_reg_u32(): load from core reg 7  value 0x8001af8
Debug: 1242 3931 hla_target.c:55 adapter_load_core_reg_u32(): adapter_load_core_reg_u32
Debug: 1243 3932 hla_target.c:70 adapter_load_core_reg_u32(): load from core reg 8  value 0xefe69a22
Debug: 1244 3932 hla_target.c:55 adapter_load_core_reg_u32(): adapter_load_core_reg_u32
Debug: 1245 3933 hla_target.c:70 adapter_load_core_reg_u32(): load from core reg 9  value 0x7101362d
Debug: 1246 3933 hla_target.c:55 adapter_load_core_reg_u32(): adapter_load_core_reg_u32
Debug: 1247 3933 hla_target.c:70 adapter_load_core_reg_u32(): load from core reg 10  value 0x46e0bef4
Debug: 1248 3933 hla_target.c:55 adapter_load_core_reg_u32(): adapter_load_core_reg_u32
Debug: 1249 3934 hla_target.c:70 adapter_load_core_reg_u32(): load from core reg 11  value 0x5ff2ba7f
Debug: 1250 3934 hla_target.c:55 adapter_load_core_reg_u32(): adapter_load_core_reg_u32
Debug: 1251 3934 hla_target.c:70 adapter_load_core_reg_u32(): load from core reg 12  value 0xf
Debug: 1252 3934 hla_target.c:55 adapter_load_core_reg_u32(): adapter_load_core_reg_u32
Debug: 1253 3935 hla_target.c:70 adapter_load_core_reg_u32(): load from core reg 13  value 0x20001ff0
Debug: 1254 3935 hla_target.c:55 adapter_load_core_reg_u32(): adapter_load_core_reg_u32
Debug: 1255 3936 hla_target.c:70 adapter_load_core_reg_u32(): load from core reg 14  value 0x8000279
Debug: 1256 3936 hla_target.c:55 adapter_load_core_reg_u32(): adapter_load_core_reg_u32
Debug: 1257 3936 hla_target.c:70 adapter_load_core_reg_u32(): load from core reg 15  value 0x80008c0
Debug: 1258 3936 hla_target.c:55 adapter_load_core_reg_u32(): adapter_load_core_reg_u32
Debug: 1259 3937 hla_target.c:70 adapter_load_core_reg_u32(): load from core reg 16  value 0x61000000
Debug: 1260 3937 hla_target.c:55 adapter_load_core_reg_u32(): adapter_load_core_reg_u32
Debug: 1261 3938 hla_target.c:70 adapter_load_core_reg_u32(): load from core reg 17  value 0x20001ff0
Debug: 1262 3938 hla_target.c:55 adapter_load_core_reg_u32(): adapter_load_core_reg_u32
Debug: 1263 3938 hla_target.c:70 adapter_load_core_reg_u32(): load from core reg 18  value 0xfb748eec
Debug: 1264 3938 hla_target.c:55 adapter_load_core_reg_u32(): adapter_load_core_reg_u32
Debug: 1265 3939 hla_target.c:135 adapter_load_core_reg_u32(): load from special reg 19 value 0x0
Debug: 1266 3939 hla_target.c:55 adapter_load_core_reg_u32(): adapter_load_core_reg_u32
Debug: 1267 3940 hla_target.c:135 adapter_load_core_reg_u32(): load from special reg 20 value 0x0
Debug: 1268 3940 hla_target.c:55 adapter_load_core_reg_u32(): adapter_load_core_reg_u32
Debug: 1269 3940 hla_target.c:135 adapter_load_core_reg_u32(): load from special reg 21 value 0x0
Debug: 1270 3940 hla_target.c:55 adapter_load_core_reg_u32(): adapter_load_core_reg_u32
Debug: 1271 3942 hla_target.c:135 adapter_load_core_reg_u32(): load from special reg 22 value 0x0
Debug: 1272 3943 hla_target.c:374 adapter_debug_entry(): entered debug state in core mode: Thread at PC 0x080008c0, target->state: halted
Debug: 1273 3943 hla_target.c:697 adapter_read_memory(): adapter_read_memory 0x080008c0 2 1
Debug: 1274 3944 target.c:1936 target_read_u16(): address: 0x080008c0, value: 0xb5f8
Debug: 1275 3944 target.c:1294 target_call_event_callbacks(): target event 0 (gdb-halt)
Debug: 1276 3944 target.c:1294 target_call_event_callbacks(): target event 1 (halted)
Debug: 1277 3944 target.c:1294 target_call_event_callbacks(): target event 6 (gdb-end)
Debug: 1278 3944 hla_target.c:412 adapter_poll(): halted: PC: 0x080008c0
Debug: 1279 3944 gdb_server.c:2019 gdb_input_inner(): received packet: 'g'
Debug: 1280 3945 gdb_server.c:2019 gdb_input_inner(): received packet: 'z1,80001d0,2'
Debug: 1281 3945 gdb_server.c:1374 gdb_breakpoint_watchpoint_packet(): -
Debug: 1282 3945 cortex_m.c:1193 cortex_m3_unset_breakpoint(): BPID: 3, Type: 0, Address: 0x080001d0 Length: 2 (set=1)
Debug: 1283 3945 target.c:1978 target_write_u32(): address: 0xe0002008, value: 0x00000000
Debug: 1284 3945 hla_target.c:745 adapter_write_memory(): adapter_write_memory 0xe0002008 4 1
Debug: 1285 3946 breakpoints.c:309 breakpoint_free(): free BPID: 3 --> 0
Debug: 1286 3946 gdb_server.c:2019 gdb_input_inner(): received packet: 'z1,80008c0,2'
Debug: 1287 3946 gdb_server.c:1374 gdb_breakpoint_watchpoint_packet(): -
Debug: 1288 3946 cortex_m.c:1193 cortex_m3_unset_breakpoint(): BPID: 4, Type: 0, Address: 0x080008c0 Length: 2 (set=2)
Debug: 1289 3946 target.c:1978 target_write_u32(): address: 0xe000200c, value: 0x00000000
Debug: 1290 3946 hla_target.c:745 adapter_write_memory(): adapter_write_memory 0xe000200c 4 1
Debug: 1291 3947 breakpoints.c:309 breakpoint_free(): free BPID: 4 --> 0
Debug: 1292 3947 gdb_server.c:2019 gdb_input_inner(): received packet: 'z1,8000902,2'
Debug: 1293 3947 gdb_server.c:1374 gdb_breakpoint_watchpoint_packet(): -
Debug: 1294 3947 cortex_m.c:1193 cortex_m3_unset_breakpoint(): BPID: 5, Type: 0, Address: 0x08000902 Length: 2 (set=3)
Debug: 1295 3947 target.c:1978 target_write_u32(): address: 0xe0002010, value: 0x00000000
Debug: 1296 3947 hla_target.c:745 adapter_write_memory(): adapter_write_memory 0xe0002010 4 1
Debug: 1297 3948 breakpoints.c:309 breakpoint_free(): free BPID: 5 --> 0
Debug: 1298 3948 gdb_server.c:2019 gdb_input_inner(): received packet: 'm80008c0,4'
Debug: 1299 3948 gdb_server.c:1192 gdb_read_memory_packet(): addr: 0x080008c0, len: 0x00000004
Debug: 1300 3948 target.c:1764 target_read_buffer(): reading buffer of 4 byte at 0x080008c0
Debug: 1301 3948 hla_target.c:697 adapter_read_memory(): adapter_read_memory 0x080008c0 4 1
Debug: 1302 4026 gdb_server.c:2019 gdb_input_inner(): received packet: 'qL1200000000000000000'
Debug: 1303 4029 gdb_server.c:2019 gdb_input_inner(): received packet: 'qL1200000000000000000'
Debug: 1304 5198 gdb_server.c:2019 gdb_input_inner(): received packet: 'qTStatus'
Debug: 1305 5198 gdb_server.c:2019 gdb_input_inner(): received packet: 'Z1,80001d0,2'
Debug: 1306 5198 gdb_server.c:1374 gdb_breakpoint_watchpoint_packet(): -
Debug: 1307 5198 target.c:1978 target_write_u32(): address: 0xe0002008, value: 0x480001d1
Debug: 1308 5198 hla_target.c:745 adapter_write_memory(): adapter_write_memory 0xe0002008 4 1
Debug: 1309 5200 cortex_m.c:1139 cortex_m3_set_breakpoint(): fpc_num 0 fpcr_value 0x480001d1
Debug: 1310 5201 cortex_m.c:1172 cortex_m3_set_breakpoint(): BPID: 6, Type: 0, Address: 0x080001d0 Length: 2 (set=1)
Debug: 1311 5201 breakpoints.c:106 breakpoint_add_internal(): added hardware breakpoint at 0x080001d0 of length 0x00000002, (BPID: 6)
Debug: 1312 5201 gdb_server.c:2019 gdb_input_inner(): received packet: 'Z1,8000902,2'
Debug: 1313 5201 gdb_server.c:1374 gdb_breakpoint_watchpoint_packet(): -
Debug: 1314 5201 target.c:1978 target_write_u32(): address: 0xe000200c, value: 0x88000901
Debug: 1315 5201 hla_target.c:745 adapter_write_memory(): adapter_write_memory 0xe000200c 4 1
Debug: 1316 5202 cortex_m.c:1139 cortex_m3_set_breakpoint(): fpc_num 1 fpcr_value 0x88000901
Debug: 1317 5202 cortex_m.c:1172 cortex_m3_set_breakpoint(): BPID: 7, Type: 0, Address: 0x08000902 Length: 2 (set=2)
Debug: 1318 5202 breakpoints.c:106 breakpoint_add_internal(): added hardware breakpoint at 0x08000902 of length 0x00000002, (BPID: 7)
Debug: 1319 5203 gdb_server.c:2019 gdb_input_inner(): received packet: 'c'
Debug: 1320 5203 target.c:1294 target_call_event_callbacks(): target event 5 (gdb-start)
Debug: 1321 5203 gdb_server.c:1342 gdb_step_continue_packet(): -
Debug: 1322 5203 gdb_server.c:1351 gdb_step_continue_packet(): continue
Debug: 1323 5203 target.c:1294 target_call_event_callbacks(): target event 3 (resume-start)
Debug: 1324 5203 hla_target.c:551 adapter_resume(): adapter_resume 1 0x00000000 0 0
Debug: 1325 5203 target.c:1615 target_free_all_working_areas_restore(): freeing all working areas
Debug: 1326 5203 target.c:1381 print_wa_layout():    0x20000000-0x20001fff (8192 bytes)
Debug: 1327 5204 hla_target.c:697 adapter_read_memory(): adapter_read_memory 0x080008c0 2 1
Debug: 1328 5205 target.c:1936 target_read_u16(): address: 0x080008c0, value: 0xb5f8
Debug: 1329 5206 target.c:1978 target_write_u32(): address: 0xe000edfc, value: 0x01000000
Debug: 1330 5206 hla_target.c:745 adapter_write_memory(): adapter_write_memory 0xe000edfc 4 1
Debug: 1331 5207 armv7m.c:140 armv7m_restore_context():  
Debug: 1332 5207 target.c:1294 target_call_event_callbacks(): target event 2 (resumed)
Debug: 1333 5208 target.c:1294 target_call_event_callbacks(): target event 4 (resume-end)
Debug: 1334 5308 hla_target.c:55 adapter_load_core_reg_u32(): adapter_load_core_reg_u32
Debug: 1335 5309 hla_target.c:70 adapter_load_core_reg_u32(): load from core reg 0  value 0x4
Debug: 1336 5309 hla_target.c:55 adapter_load_core_reg_u32(): adapter_load_core_reg_u32
Debug: 1337 5310 hla_target.c:70 adapter_load_core_reg_u32(): load from core reg 1  value 0x8001a98
Debug: 1338 5310 hla_target.c:55 adapter_load_core_reg_u32(): adapter_load_core_reg_u32
Debug: 1339 5311 hla_target.c:70 adapter_load_core_reg_u32(): load from core reg 2  value 0x0
Debug: 1340 5311 hla_target.c:55 adapter_load_core_reg_u32(): adapter_load_core_reg_u32
Debug: 1341 5311 hla_target.c:70 adapter_load_core_reg_u32(): load from core reg 3  value 0x0
Debug: 1342 5311 hla_target.c:55 adapter_load_core_reg_u32(): adapter_load_core_reg_u32
Debug: 1343 5312 hla_target.c:70 adapter_load_core_reg_u32(): load from core reg 4  value 0x8001a98
Debug: 1344 5312 hla_target.c:55 adapter_load_core_reg_u32(): adapter_load_core_reg_u32
Debug: 1345 5313 hla_target.c:70 adapter_load_core_reg_u32(): load from core reg 5  value 0x4
Debug: 1346 5313 hla_target.c:55 adapter_load_core_reg_u32(): adapter_load_core_reg_u32
Debug: 1347 5314 hla_target.c:70 adapter_load_core_reg_u32(): load from core reg 6  value 0x0
Debug: 1348 5314 hla_target.c:55 adapter_load_core_reg_u32(): adapter_load_core_reg_u32
Debug: 1349 5314 hla_target.c:70 adapter_load_core_reg_u32(): load from core reg 7  value 0x8001af8
Debug: 1350 5314 hla_target.c:55 adapter_load_core_reg_u32(): adapter_load_core_reg_u32
Debug: 1351 5315 hla_target.c:70 adapter_load_core_reg_u32(): load from core reg 8  value 0xefe69a22
Debug: 1352 5315 hla_target.c:55 adapter_load_core_reg_u32(): adapter_load_core_reg_u32
Debug: 1353 5316 hla_target.c:70 adapter_load_core_reg_u32(): load from core reg 9  value 0x7101362d
Debug: 1354 5316 hla_target.c:55 adapter_load_core_reg_u32(): adapter_load_core_reg_u32
Debug: 1355 5317 hla_target.c:70 adapter_load_core_reg_u32(): load from core reg 10  value 0x10
Debug: 1356 5318 hla_target.c:55 adapter_load_core_reg_u32(): adapter_load_core_reg_u32
Debug: 1357 5318 hla_target.c:70 adapter_load_core_reg_u32(): load from core reg 11  value 0x5ff2ba7f
Debug: 1358 5318 hla_target.c:55 adapter_load_core_reg_u32(): adapter_load_core_reg_u32
Debug: 1359 5319 hla_target.c:70 adapter_load_core_reg_u32(): load from core reg 12  value 0xf
Debug: 1360 5319 hla_target.c:55 adapter_load_core_reg_u32(): adapter_load_core_reg_u32
Debug: 1361 5320 hla_target.c:70 adapter_load_core_reg_u32(): load from core reg 13  value 0x20001f90
Debug: 1362 5320 hla_target.c:55 adapter_load_core_reg_u32(): adapter_load_core_reg_u32
Debug: 1363 5320 hla_target.c:70 adapter_load_core_reg_u32(): load from core reg 14  value 0x8000713
Debug: 1364 5320 hla_target.c:55 adapter_load_core_reg_u32(): adapter_load_core_reg_u32
Debug: 1365 5321 hla_target.c:70 adapter_load_core_reg_u32(): load from core reg 15  value 0x80006ba
Debug: 1366 5321 hla_target.c:55 adapter_load_core_reg_u32(): adapter_load_core_reg_u32
Debug: 1367 5322 hla_target.c:70 adapter_load_core_reg_u32(): load from core reg 16  value 0x21000000
Debug: 1368 5322 hla_target.c:55 adapter_load_core_reg_u32(): adapter_load_core_reg_u32
Debug: 1369 5330 hla_target.c:70 adapter_load_core_reg_u32(): load from core reg 17  value 0x20001f90
Debug: 1370 5330 hla_target.c:55 adapter_load_core_reg_u32(): adapter_load_core_reg_u32
Debug: 1371 5333 hla_target.c:70 adapter_load_core_reg_u32(): load from core reg 18  value 0xfb748eec
Debug: 1372 5333 hla_target.c:55 adapter_load_core_reg_u32(): adapter_load_core_reg_u32
Debug: 1373 5334 hla_target.c:135 adapter_load_core_reg_u32(): load from special reg 19 value 0x0
Debug: 1374 5334 hla_target.c:55 adapter_load_core_reg_u32(): adapter_load_core_reg_u32
Debug: 1375 5335 hla_target.c:135 adapter_load_core_reg_u32(): load from special reg 20 value 0x0
Debug: 1376 5335 hla_target.c:55 adapter_load_core_reg_u32(): adapter_load_core_reg_u32
Debug: 1377 5335 hla_target.c:135 adapter_load_core_reg_u32(): load from special reg 21 value 0x0
Debug: 1378 5335 hla_target.c:55 adapter_load_core_reg_u32(): adapter_load_core_reg_u32
Debug: 1379 5336 hla_target.c:135 adapter_load_core_reg_u32(): load from special reg 22 value 0x0
Debug: 1380 5337 hla_target.c:374 adapter_debug_entry(): entered debug state in core mode: Thread at PC 0x080006ba, target->state: halted
Debug: 1381 5337 hla_target.c:697 adapter_read_memory(): adapter_read_memory 0x080006ba 2 1
Debug: 1382 5338 target.c:1936 target_read_u16(): address: 0x080006ba, value: 0xbeab
Debug: 1383 5338 hla_target.c:697 adapter_read_memory(): adapter_read_memory 0x08001a98 1 1
Debug: 1384 5342 hla_target.c:697 adapter_read_memory(): adapter_read_memory 0x08001a99 1 1
Debug: 1385 5349 hla_target.c:697 adapter_read_memory(): adapter_read_memory 0x08001a9a 1 1
Debug: 1386 5352 hla_target.c:697 adapter_read_memory(): adapter_read_memory 0x08001a9b 1 1
Debug: 1387 5353 hla_target.c:697 adapter_read_memory(): adapter_read_memory 0x08001a9c 1 1
Debug: 1388 5354 hla_target.c:697 adapter_read_memory(): adapter_read_memory 0x08001a9d 1 1
Debug: 1389 5357 hla_target.c:697 adapter_read_memory(): adapter_read_memory 0x08001a9e 1 1
Debug: 1390 5359 hla_target.c:697 adapter_read_memory(): adapter_read_memory 0x08001a9f 1 1
Debug: 1391 5360 hla_target.c:697 adapter_read_memory(): adapter_read_memory 0x08001aa0 1 1
Debug: 1392 5362 hla_target.c:697 adapter_read_memory(): adapter_read_memory 0x08001aa1 1 1
Debug: 1393 5363 hla_target.c:697 adapter_read_memory(): adapter_read_memory 0x08001aa2 1 1
Debug: 1394 5365 hla_target.c:697 adapter_read_memory(): adapter_read_memory 0x08001aa3 1 1
Debug: 1395 5366 hla_target.c:697 adapter_read_memory(): adapter_read_memory 0x08001aa4 1 1
Debug: 1396 5367 hla_target.c:697 adapter_read_memory(): adapter_read_memory 0x08001aa5 1 1
Debug: 1397 5370 hla_target.c:697 adapter_read_memory(): adapter_read_memory 0x08001aa6 1 1
Debug: 1398 5372 hla_target.c:697 adapter_read_memory(): adapter_read_memory 0x08001aa7 1 1
Debug: 1399 5374 hla_target.c:697 adapter_read_memory(): adapter_read_memory 0x08001aa8 1 1
Debug: 1400 5374 target.c:1294 target_call_event_callbacks(): target event 3 (resume-start)
Debug: 1401 5374 hla_target.c:551 adapter_resume(): adapter_resume 1 0x00000000 0 0
Debug: 1402 5374 target.c:1615 target_free_all_working_areas_restore(): freeing all working areas
Debug: 1403 5374 target.c:1381 print_wa_layout():    0x20000000-0x20001fff (8192 bytes)
Debug: 1404 5374 hla_target.c:697 adapter_read_memory(): adapter_read_memory 0x080006ba 2 1
Debug: 1405 5375 target.c:1936 target_read_u16(): address: 0x080006ba, value: 0xbeab
Debug: 1406 5375 armv7m.c:780 armv7m_maybe_skip_bkpt_inst(): Skipping over BKPT instruction
Debug: 1407 5375 target.c:1978 target_write_u32(): address: 0xe000edfc, value: 0x01000000
Debug: 1408 5375 hla_target.c:745 adapter_write_memory(): adapter_write_memory 0xe000edfc 4 1
Debug: 1409 5377 armv7m.c:140 armv7m_restore_context():  
Debug: 1410 5377 hla_target.c:153 adapter_store_core_reg_u32(): adapter_store_core_reg_u32
Debug: 1411 5378 hla_target.c:183 adapter_store_core_reg_u32(): write core reg 15 value 0x80006bc
Debug: 1412 5378 armv7m.c:249 armv7m_write_core_reg(): write core reg 15 value 0x80006bc
Debug: 1413 5378 hla_target.c:153 adapter_store_core_reg_u32(): adapter_store_core_reg_u32
Debug: 1414 5379 hla_target.c:183 adapter_store_core_reg_u32(): write core reg 0 value 0x0
Debug: 1415 5379 armv7m.c:249 armv7m_write_core_reg(): write core reg 0 value 0x0
Debug: 1416 5379 target.c:1294 target_call_event_callbacks(): target event 2 (resumed)
Debug: 1417 5379 target.c:1294 target_call_event_callbacks(): target event 4 (resume-end)
Debug: 1418 5480 hla_target.c:55 adapter_load_core_reg_u32(): adapter_load_core_reg_u32
Debug: 1419 5481 hla_target.c:70 adapter_load_core_reg_u32(): load from core reg 0  value 0x4
Debug: 1420 5481 hla_target.c:55 adapter_load_core_reg_u32(): adapter_load_core_reg_u32
Debug: 1421 5482 hla_target.c:70 adapter_load_core_reg_u32(): load from core reg 1  value 0x8001a68
Debug: 1422 5482 hla_target.c:55 adapter_load_core_reg_u32(): adapter_load_core_reg_u32
Debug: 1423 5482 hla_target.c:70 adapter_load_core_reg_u32(): load from core reg 2  value 0x0
Debug: 1424 5482 hla_target.c:55 adapter_load_core_reg_u32(): adapter_load_core_reg_u32
Debug: 1425 5483 hla_target.c:70 adapter_load_core_reg_u32(): load from core reg 3  value 0x0
Debug: 1426 5483 hla_target.c:55 adapter_load_core_reg_u32(): adapter_load_core_reg_u32
Debug: 1427 5484 hla_target.c:70 adapter_load_core_reg_u32(): load from core reg 4  value 0x8001a68
Debug: 1428 5484 hla_target.c:55 adapter_load_core_reg_u32(): adapter_load_core_reg_u32
Debug: 1429 5484 hla_target.c:70 adapter_load_core_reg_u32(): load from core reg 5  value 0x4
Debug: 1430 5484 hla_target.c:55 adapter_load_core_reg_u32(): adapter_load_core_reg_u32
Debug: 1431 5485 hla_target.c:70 adapter_load_core_reg_u32(): load from core reg 6  value 0x0
Debug: 1432 5485 hla_target.c:55 adapter_load_core_reg_u32(): adapter_load_core_reg_u32
Debug: 1433 5486 hla_target.c:70 adapter_load_core_reg_u32(): load from core reg 7  value 0x8001af8
Debug: 1434 5486 hla_target.c:55 adapter_load_core_reg_u32(): adapter_load_core_reg_u32
Debug: 1435 5486 hla_target.c:70 adapter_load_core_reg_u32(): load from core reg 8  value 0xefe69a22
Debug: 1436 5486 hla_target.c:55 adapter_load_core_reg_u32(): adapter_load_core_reg_u32
Debug: 1437 5487 hla_target.c:70 adapter_load_core_reg_u32(): load from core reg 9  value 0x7101362d
Debug: 1438 5487 hla_target.c:55 adapter_load_core_reg_u32(): adapter_load_core_reg_u32
Debug: 1439 5488 hla_target.c:70 adapter_load_core_reg_u32(): load from core reg 10  value 0x1
Debug: 1440 5488 hla_target.c:55 adapter_load_core_reg_u32(): adapter_load_core_reg_u32
Debug: 1441 5489 hla_target.c:70 adapter_load_core_reg_u32(): load from core reg 11  value 0x5ff2ba7f
Debug: 1442 5489 hla_target.c:55 adapter_load_core_reg_u32(): adapter_load_core_reg_u32
Debug: 1443 5489 hla_target.c:70 adapter_load_core_reg_u32(): load from core reg 12  value 0xf
Debug: 1444 5489 hla_target.c:55 adapter_load_core_reg_u32(): adapter_load_core_reg_u32
Debug: 1445 5490 hla_target.c:70 adapter_load_core_reg_u32(): load from core reg 13  value 0x20001f90
Debug: 1446 5490 hla_target.c:55 adapter_load_core_reg_u32(): adapter_load_core_reg_u32
Debug: 1447 5490 hla_target.c:70 adapter_load_core_reg_u32(): load from core reg 14  value 0x8000713
Debug: 1448 5490 hla_target.c:55 adapter_load_core_reg_u32(): adapter_load_core_reg_u32
Debug: 1449 5491 hla_target.c:70 adapter_load_core_reg_u32(): load from core reg 15  value 0x80006ba
Debug: 1450 5491 hla_target.c:55 adapter_load_core_reg_u32(): adapter_load_core_reg_u32
Debug: 1451 5492 hla_target.c:70 adapter_load_core_reg_u32(): load from core reg 16  value 0x21000000
Debug: 1452 5492 hla_target.c:55 adapter_load_core_reg_u32(): adapter_load_core_reg_u32
Debug: 1453 5493 hla_target.c:70 adapter_load_core_reg_u32(): load from core reg 17  value 0x20001f90
Debug: 1454 5493 hla_target.c:55 adapter_load_core_reg_u32(): adapter_load_core_reg_u32
Debug: 1455 5494 hla_target.c:70 adapter_load_core_reg_u32(): load from core reg 18  value 0xfb748eec
Debug: 1456 5494 hla_target.c:55 adapter_load_core_reg_u32(): adapter_load_core_reg_u32
Debug: 1457 5495 hla_target.c:135 adapter_load_core_reg_u32(): load from special reg 19 value 0x0
Debug: 1458 5495 hla_target.c:55 adapter_load_core_reg_u32(): adapter_load_core_reg_u32
Debug: 1459 5496 hla_target.c:135 adapter_load_core_reg_u32(): load from special reg 20 value 0x0
Debug: 1460 5496 hla_target.c:55 adapter_load_core_reg_u32(): adapter_load_core_reg_u32
Debug: 1461 5497 hla_target.c:135 adapter_load_core_reg_u32(): load from special reg 21 value 0x0
Debug: 1462 5497 hla_target.c:55 adapter_load_core_reg_u32(): adapter_load_core_reg_u32
Debug: 1463 5497 hla_target.c:135 adapter_load_core_reg_u32(): load from special reg 22 value 0x0
Debug: 1464 5498 hla_target.c:374 adapter_debug_entry(): entered debug state in core mode: Thread at PC 0x080006ba, target->state: halted
Debug: 1465 5498 hla_target.c:697 adapter_read_memory(): adapter_read_memory 0x080006ba 2 1
Debug: 1466 5499 target.c:1936 target_read_u16(): address: 0x080006ba, value: 0xbeab
Debug: 1467 5499 hla_target.c:697 adapter_read_memory(): adapter_read_memory 0x08001a68 1 1
Debug: 1468 5500 hla_target.c:697 adapter_read_memory(): adapter_read_memory 0x08001a69 1 1
Debug: 1469 5501 target.c:1294 target_call_event_callbacks(): target event 3 (resume-start)
Debug: 1470 5501 hla_target.c:551 adapter_resume(): adapter_resume 1 0x00000000 0 0
Debug: 1471 5501 target.c:1615 target_free_all_working_areas_restore(): freeing all working areas
Debug: 1472 5501 target.c:1381 print_wa_layout():    0x20000000-0x20001fff (8192 bytes)
Debug: 1473 5501 hla_target.c:697 adapter_read_memory(): adapter_read_memory 0x080006ba 2 1
Debug: 1474 5505 target.c:1936 target_read_u16(): address: 0x080006ba, value: 0xbeab
Debug: 1475 5505 armv7m.c:780 armv7m_maybe_skip_bkpt_inst(): Skipping over BKPT instruction
Debug: 1476 5505 target.c:1978 target_write_u32(): address: 0xe000edfc, value: 0x01000000
Debug: 1477 5505 hla_target.c:745 adapter_write_memory(): adapter_write_memory 0xe000edfc 4 1
Debug: 1478 5506 armv7m.c:140 armv7m_restore_context():  
Debug: 1479 5506 hla_target.c:153 adapter_store_core_reg_u32(): adapter_store_core_reg_u32
Debug: 1480 5507 hla_target.c:183 adapter_store_core_reg_u32(): write core reg 15 value 0x80006bc
Debug: 1481 5507 armv7m.c:249 armv7m_write_core_reg(): write core reg 15 value 0x80006bc
Debug: 1482 5507 hla_target.c:153 adapter_store_core_reg_u32(): adapter_store_core_reg_u32
Debug: 1483 5508 hla_target.c:183 adapter_store_core_reg_u32(): write core reg 0 value 0x0
Debug: 1484 5508 armv7m.c:249 armv7m_write_core_reg(): write core reg 0 value 0x0
Debug: 1485 5508 target.c:1294 target_call_event_callbacks(): target event 2 (resumed)
Debug: 1486 5508 target.c:1294 target_call_event_callbacks(): target event 4 (resume-end)
Debug: 1487 5609 hla_target.c:55 adapter_load_core_reg_u32(): adapter_load_core_reg_u32
Debug: 1488 5610 hla_target.c:70 adapter_load_core_reg_u32(): load from core reg 0  value 0x4
Debug: 1489 5610 hla_target.c:55 adapter_load_core_reg_u32(): adapter_load_core_reg_u32
Debug: 1490 5611 hla_target.c:70 adapter_load_core_reg_u32(): load from core reg 1  value 0x20001f48
Debug: 1491 5611 hla_target.c:55 adapter_load_core_reg_u32(): adapter_load_core_reg_u32
Debug: 1492 5611 hla_target.c:70 adapter_load_core_reg_u32(): load from core reg 2  value 0x20001f58
Debug: 1493 5611 hla_target.c:55 adapter_load_core_reg_u32(): adapter_load_core_reg_u32
Debug: 1494 5612 hla_target.c:70 adapter_load_core_reg_u32(): load from core reg 3  value 0x20001f68
Debug: 1495 5612 hla_target.c:55 adapter_load_core_reg_u32(): adapter_load_core_reg_u32
Debug: 1496 5613 hla_target.c:70 adapter_load_core_reg_u32(): load from core reg 4  value 0x200002e0
Debug: 1497 5613 hla_target.c:55 adapter_load_core_reg_u32(): adapter_load_core_reg_u32
Debug: 1498 5614 hla_target.c:70 adapter_load_core_reg_u32(): load from core reg 5  value 0x10
Debug: 1499 5614 hla_target.c:55 adapter_load_core_reg_u32(): adapter_load_core_reg_u32
Debug: 1500 5614 hla_target.c:70 adapter_load_core_reg_u32(): load from core reg 6  value 0x19
Debug: 1501 5614 hla_target.c:55 adapter_load_core_reg_u32(): adapter_load_core_reg_u32
Debug: 1502 5615 hla_target.c:70 adapter_load_core_reg_u32(): load from core reg 7  value 0x0
Debug: 1503 5615 hla_target.c:55 adapter_load_core_reg_u32(): adapter_load_core_reg_u32
Debug: 1504 5616 hla_target.c:70 adapter_load_core_reg_u32(): load from core reg 8  value 0x20001f48
Debug: 1505 5616 hla_target.c:55 adapter_load_core_reg_u32(): adapter_load_core_reg_u32
Debug: 1506 5616 hla_target.c:70 adapter_load_core_reg_u32(): load from core reg 9  value 0x4
Debug: 1507 5616 hla_target.c:55 adapter_load_core_reg_u32(): adapter_load_core_reg_u32
Debug: 1508 5617 hla_target.c:70 adapter_load_core_reg_u32(): load from core reg 10  value 0x19
Debug: 1509 5617 hla_target.c:55 adapter_load_core_reg_u32(): adapter_load_core_reg_u32
Debug: 1510 5618 hla_target.c:70 adapter_load_core_reg_u32(): load from core reg 11  value 0x5ff2ba7f
Debug: 1511 5618 hla_target.c:55 adapter_load_core_reg_u32(): adapter_load_core_reg_u32
Debug: 1512 5618 hla_target.c:70 adapter_load_core_reg_u32(): load from core reg 12  value 0xf
Debug: 1513 5618 hla_target.c:55 adapter_load_core_reg_u32(): adapter_load_core_reg_u32
Debug: 1514 5619 hla_target.c:70 adapter_load_core_reg_u32(): load from core reg 13  value 0x20001f48
Debug: 1515 5619 hla_target.c:55 adapter_load_core_reg_u32(): adapter_load_core_reg_u32
Debug: 1516 5620 hla_target.c:70 adapter_load_core_reg_u32(): load from core reg 14  value 0x8000713
Debug: 1517 5620 hla_target.c:55 adapter_load_core_reg_u32(): adapter_load_core_reg_u32
Debug: 1518 5620 hla_target.c:70 adapter_load_core_reg_u32(): load from core reg 15  value 0x80006ea
Debug: 1519 5620 hla_target.c:55 adapter_load_core_reg_u32(): adapter_load_core_reg_u32
Debug: 1520 5621 hla_target.c:70 adapter_load_core_reg_u32(): load from core reg 16  value 0x61000000
Debug: 1521 5621 hla_target.c:55 adapter_load_core_reg_u32(): adapter_load_core_reg_u32
Debug: 1522 5622 hla_target.c:70 adapter_load_core_reg_u32(): load from core reg 17  value 0x20001f48
Debug: 1523 5622 hla_target.c:55 adapter_load_core_reg_u32(): adapter_load_core_reg_u32
Debug: 1524 5622 hla_target.c:70 adapter_load_core_reg_u32(): load from core reg 18  value 0xfb748eec
Debug: 1525 5622 hla_target.c:55 adapter_load_core_reg_u32(): adapter_load_core_reg_u32
Debug: 1526 5623 hla_target.c:135 adapter_load_core_reg_u32(): load from special reg 19 value 0x0
Debug: 1527 5623 hla_target.c:55 adapter_load_core_reg_u32(): adapter_load_core_reg_u32
Debug: 1528 5624 hla_target.c:135 adapter_load_core_reg_u32(): load from special reg 20 value 0x0
Debug: 1529 5624 hla_target.c:55 adapter_load_core_reg_u32(): adapter_load_core_reg_u32
Debug: 1530 5625 hla_target.c:135 adapter_load_core_reg_u32(): load from special reg 21 value 0x0
Debug: 1531 5625 hla_target.c:55 adapter_load_core_reg_u32(): adapter_load_core_reg_u32
Debug: 1532 5625 hla_target.c:135 adapter_load_core_reg_u32(): load from special reg 22 value 0x0
Debug: 1533 5626 hla_target.c:374 adapter_debug_entry(): entered debug state in core mode: Thread at PC 0x080006ea, target->state: halted
Debug: 1534 5626 hla_target.c:697 adapter_read_memory(): adapter_read_memory 0x080006ea 2 1
Debug: 1535 5627 target.c:1936 target_read_u16(): address: 0x080006ea, value: 0xbeab
Debug: 1536 5627 hla_target.c:697 adapter_read_memory(): adapter_read_memory 0x20001f48 1 1
Debug: 1537 5629 hla_target.c:697 adapter_read_memory(): adapter_read_memory 0x20001f49 1 1
Debug: 1538 5631 hla_target.c:697 adapter_read_memory(): adapter_read_memory 0x20001f4a 1 1
Debug: 1539 5633 hla_target.c:697 adapter_read_memory(): adapter_read_memory 0x20001f4b 1 1
Debug: 1540 5634 hla_target.c:697 adapter_read_memory(): adapter_read_memory 0x20001f4c 1 1
Debug: 1541 5636 hla_target.c:697 adapter_read_memory(): adapter_read_memory 0x20001f4d 1 1
Debug: 1542 5638 hla_target.c:697 adapter_read_memory(): adapter_read_memory 0x20001f4e 1 1
Debug: 1543 5641 hla_target.c:697 adapter_read_memory(): adapter_read_memory 0x20001f4f 1 1
Debug: 1544 5642 hla_target.c:697 adapter_read_memory(): adapter_read_memory 0x20001f50 1 1
Debug: 1545 5644 hla_target.c:697 adapter_read_memory(): adapter_read_memory 0x20001f51 1 1
Debug: 1546 5646 hla_target.c:697 adapter_read_memory(): adapter_read_memory 0x20001f52 1 1
Debug: 1547 5648 hla_target.c:697 adapter_read_memory(): adapter_read_memory 0x20001f53 1 1
Debug: 1548 5649 hla_target.c:697 adapter_read_memory(): adapter_read_memory 0x20001f54 1 1
Debug: 1549 5653 hla_target.c:697 adapter_read_memory(): adapter_read_memory 0x20001f55 1 1
Debug: 1550 5654 hla_target.c:697 adapter_read_memory(): adapter_read_memory 0x20001f56 1 1
Debug: 1551 5655 hla_target.c:697 adapter_read_memory(): adapter_read_memory 0x20001f57 1 1
Debug: 1552 5656 hla_target.c:697 adapter_read_memory(): adapter_read_memory 0x20001f58 1 1
Debug: 1553 5657 target.c:1294 target_call_event_callbacks(): target event 3 (resume-start)
Debug: 1554 5657 hla_target.c:551 adapter_resume(): adapter_resume 1 0x00000000 0 0
Debug: 1555 5657 target.c:1615 target_free_all_working_areas_restore(): freeing all working areas
Debug: 1556 5657 target.c:1381 print_wa_layout():    0x20000000-0x20001fff (8192 bytes)
Debug: 1557 5657 hla_target.c:697 adapter_read_memory(): adapter_read_memory 0x080006ea 2 1
Debug: 1558 5658 target.c:1936 target_read_u16(): address: 0x080006ea, value: 0xbeab
Debug: 1559 5658 armv7m.c:780 armv7m_maybe_skip_bkpt_inst(): Skipping over BKPT instruction
Debug: 1560 5658 target.c:1978 target_write_u32(): address: 0xe000edfc, value: 0x01000000
Debug: 1561 5658 hla_target.c:745 adapter_write_memory(): adapter_write_memory 0xe000edfc 4 1
Debug: 1562 5659 armv7m.c:140 armv7m_restore_context():  
Debug: 1563 5659 hla_target.c:153 adapter_store_core_reg_u32(): adapter_store_core_reg_u32
Debug: 1564 5660 hla_target.c:183 adapter_store_core_reg_u32(): write core reg 15 value 0x80006ec
Debug: 1565 5660 armv7m.c:249 armv7m_write_core_reg(): write core reg 15 value 0x80006ec
Debug: 1566 5660 hla_target.c:153 adapter_store_core_reg_u32(): adapter_store_core_reg_u32
Debug: 1567 5661 hla_target.c:183 adapter_store_core_reg_u32(): write core reg 0 value 0x0
Debug: 1568 5661 armv7m.c:249 armv7m_write_core_reg(): write core reg 0 value 0x0
Debug: 1569 5662 target.c:1294 target_call_event_callbacks(): target event 2 (resumed)
Debug: 1570 5662 target.c:1294 target_call_event_callbacks(): target event 4 (resume-end)
Debug: 1571 5763 hla_target.c:55 adapter_load_core_reg_u32(): adapter_load_core_reg_u32
Debug: 1572 5764 hla_target.c:70 adapter_load_core_reg_u32(): load from core reg 0  value 0x4
Debug: 1573 5764 hla_target.c:55 adapter_load_core_reg_u32(): adapter_load_core_reg_u32
Debug: 1574 5764 hla_target.c:70 adapter_load_core_reg_u32(): load from core reg 1  value 0x20001f48
Debug: 1575 5764 hla_target.c:55 adapter_load_core_reg_u32(): adapter_load_core_reg_u32
Debug: 1576 5765 hla_target.c:70 adapter_load_core_reg_u32(): load from core reg 2  value 0x20001f58
Debug: 1577 5765 hla_target.c:55 adapter_load_core_reg_u32(): adapter_load_core_reg_u32
Debug: 1578 5766 hla_target.c:70 adapter_load_core_reg_u32(): load from core reg 3  value 0x20001f61
Debug: 1579 5766 hla_target.c:55 adapter_load_core_reg_u32(): adapter_load_core_reg_u32
Debug: 1580 5766 hla_target.c:70 adapter_load_core_reg_u32(): load from core reg 4  value 0x200002e9
Debug: 1581 5766 hla_target.c:55 adapter_load_core_reg_u32(): adapter_load_core_reg_u32
Debug: 1582 5767 hla_target.c:70 adapter_load_core_reg_u32(): load from core reg 5  value 0x9
Debug: 1583 5767 hla_target.c:55 adapter_load_core_reg_u32(): adapter_load_core_reg_u32
Debug: 1584 5768 hla_target.c:70 adapter_load_core_reg_u32(): load from core reg 6  value 0x9
Debug: 1585 5768 hla_target.c:55 adapter_load_core_reg_u32(): adapter_load_core_reg_u32
Debug: 1586 5768 hla_target.c:70 adapter_load_core_reg_u32(): load from core reg 7  value 0x0
Debug: 1587 5768 hla_target.c:55 adapter_load_core_reg_u32(): adapter_load_core_reg_u32
Debug: 1588 5769 hla_target.c:70 adapter_load_core_reg_u32(): load from core reg 8  value 0x20001f48
Debug: 1589 5769 hla_target.c:55 adapter_load_core_reg_u32(): adapter_load_core_reg_u32
Debug: 1590 5770 hla_target.c:70 adapter_load_core_reg_u32(): load from core reg 9  value 0x4
Debug: 1591 5770 hla_target.c:55 adapter_load_core_reg_u32(): adapter_load_core_reg_u32
Debug: 1592 5771 hla_target.c:70 adapter_load_core_reg_u32(): load from core reg 10  value 0x19
Debug: 1593 5771 hla_target.c:55 adapter_load_core_reg_u32(): adapter_load_core_reg_u32
Debug: 1594 5771 hla_target.c:70 adapter_load_core_reg_u32(): load from core reg 11  value 0x0
Debug: 1595 5772 hla_target.c:55 adapter_load_core_reg_u32(): adapter_load_core_reg_u32
Debug: 1596 5772 hla_target.c:70 adapter_load_core_reg_u32(): load from core reg 12  value 0xf
Debug: 1597 5772 hla_target.c:55 adapter_load_core_reg_u32(): adapter_load_core_reg_u32
Debug: 1598 5773 hla_target.c:70 adapter_load_core_reg_u32(): load from core reg 13  value 0x20001f48
Debug: 1599 5773 hla_target.c:55 adapter_load_core_reg_u32(): adapter_load_core_reg_u32
Debug: 1600 5773 hla_target.c:70 adapter_load_core_reg_u32(): load from core reg 14  value 0x8000713
Debug: 1601 5774 hla_target.c:55 adapter_load_core_reg_u32(): adapter_load_core_reg_u32
Debug: 1602 5774 hla_target.c:70 adapter_load_core_reg_u32(): load from core reg 15  value 0x80006ea
Debug: 1603 5774 hla_target.c:55 adapter_load_core_reg_u32(): adapter_load_core_reg_u32
Debug: 1604 5775 hla_target.c:70 adapter_load_core_reg_u32(): load from core reg 16  value 0x61000000
Debug: 1605 5775 hla_target.c:55 adapter_load_core_reg_u32(): adapter_load_core_reg_u32
Debug: 1606 5775 hla_target.c:70 adapter_load_core_reg_u32(): load from core reg 17  value 0x20001f48
Debug: 1607 5776 hla_target.c:55 adapter_load_core_reg_u32(): adapter_load_core_reg_u32
Debug: 1608 5776 hla_target.c:70 adapter_load_core_reg_u32(): load from core reg 18  value 0xfb748eec
Debug: 1609 5776 hla_target.c:55 adapter_load_core_reg_u32(): adapter_load_core_reg_u32
Debug: 1610 5777 hla_target.c:135 adapter_load_core_reg_u32(): load from special reg 19 value 0x0
Debug: 1611 5777 hla_target.c:55 adapter_load_core_reg_u32(): adapter_load_core_reg_u32
Debug: 1612 5777 hla_target.c:135 adapter_load_core_reg_u32(): load from special reg 20 value 0x0
Debug: 1613 5778 hla_target.c:55 adapter_load_core_reg_u32(): adapter_load_core_reg_u32
Debug: 1614 5778 hla_target.c:135 adapter_load_core_reg_u32(): load from special reg 21 value 0x0
Debug: 1615 5778 hla_target.c:55 adapter_load_core_reg_u32(): adapter_load_core_reg_u32
Debug: 1616 5779 hla_target.c:135 adapter_load_core_reg_u32(): load from special reg 22 value 0x0
Debug: 1617 5779 hla_target.c:374 adapter_debug_entry(): entered debug state in core mode: Thread at PC 0x080006ea, target->state: halted
Debug: 1618 5779 hla_target.c:697 adapter_read_memory(): adapter_read_memory 0x080006ea 2 1
Debug: 1619 5780 target.c:1936 target_read_u16(): address: 0x080006ea, value: 0xbeab
Debug: 1620 5781 hla_target.c:697 adapter_read_memory(): adapter_read_memory 0x20001f48 1 1
Debug: 1621 5782 hla_target.c:697 adapter_read_memory(): adapter_read_memory 0x20001f49 1 1
Debug: 1622 5783 hla_target.c:697 adapter_read_memory(): adapter_read_memory 0x20001f4a 1 1
Debug: 1623 5783 hla_target.c:697 adapter_read_memory(): adapter_read_memory 0x20001f4b 1 1
Debug: 1624 5784 hla_target.c:697 adapter_read_memory(): adapter_read_memory 0x20001f4c 1 1
Debug: 1625 5785 hla_target.c:697 adapter_read_memory(): adapter_read_memory 0x20001f4d 1 1
Debug: 1626 5786 hla_target.c:697 adapter_read_memory(): adapter_read_memory 0x20001f4e 1 1
Debug: 1627 5787 hla_target.c:697 adapter_read_memory(): adapter_read_memory 0x20001f4f 1 1
Debug: 1628 5788 hla_target.c:697 adapter_read_memory(): adapter_read_memory 0x20001f50 1 1
Debug: 1629 5789 hla_target.c:697 adapter_read_memory(): adapter_read_memory 0x20001f51 1 1
Debug: 1630 5790 target.c:1294 target_call_event_callbacks(): target event 3 (resume-start)
Debug: 1631 5790 hla_target.c:551 adapter_resume(): adapter_resume 1 0x00000000 0 0
Debug: 1632 5790 target.c:1615 target_free_all_working_areas_restore(): freeing all working areas
Debug: 1633 5790 target.c:1381 print_wa_layout():    0x20000000-0x20001fff (8192 bytes)
Debug: 1634 5790 hla_target.c:697 adapter_read_memory(): adapter_read_memory 0x080006ea 2 1
Debug: 1635 5791 target.c:1936 target_read_u16(): address: 0x080006ea, value: 0xbeab
Debug: 1636 5792 armv7m.c:780 armv7m_maybe_skip_bkpt_inst(): Skipping over BKPT instruction
Debug: 1637 5792 target.c:1978 target_write_u32(): address: 0xe000edfc, value: 0x01000000
Debug: 1638 5792 hla_target.c:745 adapter_write_memory(): adapter_write_memory 0xe000edfc 4 1
Debug: 1639 5793 armv7m.c:140 armv7m_restore_context():  
Debug: 1640 5793 hla_target.c:153 adapter_store_core_reg_u32(): adapter_store_core_reg_u32
Debug: 1641 5793 hla_target.c:183 adapter_store_core_reg_u32(): write core reg 15 value 0x80006ec
Debug: 1642 5794 armv7m.c:249 armv7m_write_core_reg(): write core reg 15 value 0x80006ec
Debug: 1643 5794 hla_target.c:153 adapter_store_core_reg_u32(): adapter_store_core_reg_u32
Debug: 1644 5794 hla_target.c:183 adapter_store_core_reg_u32(): write core reg 0 value 0x0
Debug: 1645 5795 armv7m.c:249 armv7m_write_core_reg(): write core reg 0 value 0x0
Debug: 1646 5795 target.c:1294 target_call_event_callbacks(): target event 2 (resumed)
Debug: 1647 5795 target.c:1294 target_call_event_callbacks(): target event 4 (resume-end)
Debug: 1648 5896 hla_target.c:55 adapter_load_core_reg_u32(): adapter_load_core_reg_u32
Debug: 1649 5897 hla_target.c:70 adapter_load_core_reg_u32(): load from core reg 0  value 0x4
Debug: 1650 5897 hla_target.c:55 adapter_load_core_reg_u32(): adapter_load_core_reg_u32
Debug: 1651 5898 hla_target.c:70 adapter_load_core_reg_u32(): load from core reg 1  value 0x20000243
Debug: 1652 5898 hla_target.c:55 adapter_load_core_reg_u32(): adapter_load_core_reg_u32
Debug: 1653 5898 hla_target.c:70 adapter_load_core_reg_u32(): load from core reg 2  value 0x1
Debug: 1654 5898 hla_target.c:55 adapter_load_core_reg_u32(): adapter_load_core_reg_u32
Debug: 1655 5899 hla_target.c:70 adapter_load_core_reg_u32(): load from core reg 3  value 0x0
Debug: 1656 5899 hla_target.c:55 adapter_load_core_reg_u32(): adapter_load_core_reg_u32
Debug: 1657 5900 hla_target.c:70 adapter_load_core_reg_u32(): load from core reg 4  value 0x20000243
Debug: 1658 5900 hla_target.c:55 adapter_load_core_reg_u32(): adapter_load_core_reg_u32
Debug: 1659 5900 hla_target.c:70 adapter_load_core_reg_u32(): load from core reg 5  value 0x4
Debug: 1660 5900 hla_target.c:55 adapter_load_core_reg_u32(): adapter_load_core_reg_u32
Debug: 1661 5901 hla_target.c:70 adapter_load_core_reg_u32(): load from core reg 6  value 0x20000243
Debug: 1662 5901 hla_target.c:55 adapter_load_core_reg_u32(): adapter_load_core_reg_u32
Debug: 1663 5902 hla_target.c:70 adapter_load_core_reg_u32(): load from core reg 7  value 0x80011ef
Debug: 1664 5902 hla_target.c:55 adapter_load_core_reg_u32(): adapter_load_core_reg_u32
Debug: 1665 5902 hla_target.c:70 adapter_load_core_reg_u32(): load from core reg 8  value 0x1
Debug: 1666 5902 hla_target.c:55 adapter_load_core_reg_u32(): adapter_load_core_reg_u32
Debug: 1667 5903 hla_target.c:70 adapter_load_core_reg_u32(): load from core reg 9  value 0x18
Debug: 1668 5903 hla_target.c:55 adapter_load_core_reg_u32(): adapter_load_core_reg_u32
Debug: 1669 5904 hla_target.c:70 adapter_load_core_reg_u32(): load from core reg 10  value 0x1
Debug: 1670 5904 hla_target.c:55 adapter_load_core_reg_u32(): adapter_load_core_reg_u32
Debug: 1671 5904 hla_target.c:70 adapter_load_core_reg_u32(): load from core reg 11  value 0x5ff2ba7f
Debug: 1672 5904 hla_target.c:55 adapter_load_core_reg_u32(): adapter_load_core_reg_u32
Debug: 1673 5905 hla_target.c:70 adapter_load_core_reg_u32(): load from core reg 12  value 0xf
Debug: 1674 5905 hla_target.c:55 adapter_load_core_reg_u32(): adapter_load_core_reg_u32
Debug: 1675 5906 hla_target.c:70 adapter_load_core_reg_u32(): load from core reg 13  value 0x20001f20
Debug: 1676 5906 hla_target.c:55 adapter_load_core_reg_u32(): adapter_load_core_reg_u32
Debug: 1677 5906 hla_target.c:70 adapter_load_core_reg_u32(): load from core reg 14  value 0x8000713
Debug: 1678 5906 hla_target.c:55 adapter_load_core_reg_u32(): adapter_load_core_reg_u32
Debug: 1679 5907 hla_target.c:70 adapter_load_core_reg_u32(): load from core reg 15  value 0x80006ba
Debug: 1680 5907 hla_target.c:55 adapter_load_core_reg_u32(): adapter_load_core_reg_u32
Debug: 1681 5908 hla_target.c:70 adapter_load_core_reg_u32(): load from core reg 16  value 0x21000000
Debug: 1682 5908 hla_target.c:55 adapter_load_core_reg_u32(): adapter_load_core_reg_u32
Debug: 1683 5908 hla_target.c:70 adapter_load_core_reg_u32(): load from core reg 17  value 0x20001f20
Debug: 1684 5908 hla_target.c:55 adapter_load_core_reg_u32(): adapter_load_core_reg_u32
Debug: 1685 5909 hla_target.c:70 adapter_load_core_reg_u32(): load from core reg 18  value 0xfb748eec
Debug: 1686 5909 hla_target.c:55 adapter_load_core_reg_u32(): adapter_load_core_reg_u32
